
--- launching: authbind --deep /home/mike/projects/plc_em/dev/bin/python3 /home/mike/projects/plc_em/plc_emulator.py --host 192.168.1.181 --port 502 --protocol modbus --unit-id 1 --name PLC --vendor Generic Controls Inc. --model GC-3000 --product-code GC3000 --plc-type generic-gc3000 -v ---
2026-07-24 19:59:13,571 INFO    Starting modbus backend for 'PLC' (vendor=Generic Controls Inc. model=GC-3000) on 192.168.1.181:502, unit id 1
2026-07-24 19:59:13,571 DEBUG   Awaiting connections server_listener
2026-07-24 19:59:13,573 INFO    Server listening.
2026-07-24 19:59:19,902 DEBUG   Connected to server
2026-07-24 19:59:19,903 DEBUG   recv: 0x0 0x1 0x0 0x0 0x0 0x6 0x1 0x1 0x0 0x0 0x0 0x3 old_data:  addr=None
2026-07-24 19:59:19,903 DEBUG   Processing: 0x0 0x1 0x0 0x0 0x0 0x6 0x1 0x1 0x0 0x0 0x0 0x3
2026-07-24 19:59:19,903 DEBUG   decoded PDU function_code(1 sub -1) -> ReadCoilsRequest(dev_id=0, transaction_id=0, address=0, count=3, bits=[], registers=[], status=1) 
2026-07-24 19:59:19,903 DEBUG   Frame advanced, resetting header!!
2026-07-24 19:59:19,903 DEBUG   [PLC] READ  fx=1 addr=0 count=3 -> [1, 0, 0]
2026-07-24 19:59:19,903 DEBUG   send: 0x0 0x1 0x0 0x0 0x0 0x4 0x1 0x1 0x1 0x1
2026-07-24 19:59:19,903 DEBUG   recv: 0x0 0x2 0x0 0x0 0x0 0x6 0x1 0x2 0x0 0x0 0x0 0x3 old_data:  addr=None
2026-07-24 19:59:19,903 DEBUG   Processing: 0x0 0x2 0x0 0x0 0x0 0x6 0x1 0x2 0x0 0x0 0x0 0x3
2026-07-24 19:59:19,903 DEBUG   decoded PDU function_code(2 sub -1) -> ReadDiscreteInputsRequest(dev_id=0, transaction_id=0, address=0, count=3, bits=[], registers=[], status=1) 
2026-07-24 19:59:19,903 DEBUG   Frame advanced, resetting header!!
2026-07-24 19:59:19,903 DEBUG   [PLC] READ  fx=2 addr=0 count=3 -> [0, 0, 0]
2026-07-24 19:59:19,903 DEBUG   send: 0x0 0x2 0x0 0x0 0x0 0x4 0x1 0x2 0x1 0x0
2026-07-24 19:59:19,904 DEBUG   recv: 0x0 0x3 0x0 0x0 0x0 0x6 0x1 0x3 0x0 0x0 0x0 0x3 old_data:  addr=None
2026-07-24 19:59:19,904 DEBUG   Processing: 0x0 0x3 0x0 0x0 0x0 0x6 0x1 0x3 0x0 0x0 0x0 0x3
2026-07-24 19:59:19,904 DEBUG   decoded PDU function_code(3 sub -1) -> ReadHoldingRegistersRequest(dev_id=0, transaction_id=0, address=0, count=3, bits=[], registers=[], status=1) 
2026-07-24 19:59:19,904 DEBUG   Frame advanced, resetting header!!
2026-07-24 19:59:19,904 DEBUG   validate: fc-[3] address-1: count-3
2026-07-24 19:59:19,904 DEBUG   [PLC] READ  fx=3 addr=0 count=3 -> [500, 50, 100]
2026-07-24 19:59:19,904 DEBUG   send: 0x0 0x3 0x0 0x0 0x0 0x9 0x1 0x3 0x6 0x1 0xf4 0x0 0x32 0x0 0x64
2026-07-24 19:59:19,904 DEBUG   recv: 0x0 0x4 0x0 0x0 0x0 0x6 0x1 0x4 0x0 0x0 0x0 0x4 old_data:  addr=None
2026-07-24 19:59:19,904 DEBUG   Processing: 0x0 0x4 0x0 0x0 0x0 0x6 0x1 0x4 0x0 0x0 0x0 0x4
2026-07-24 19:59:19,904 DEBUG   decoded PDU function_code(4 sub -1) -> ReadInputRegistersRequest(dev_id=0, transaction_id=0, address=0, count=4, bits=[], registers=[], status=1) 
2026-07-24 19:59:19,904 DEBUG   Frame advanced, resetting header!!
2026-07-24 19:59:19,904 DEBUG   validate: fc-[4] address-1: count-4
2026-07-24 19:59:19,904 DEBUG   [PLC] READ  fx=4 addr=0 count=4 -> [424, 40, 0, 6]
2026-07-24 19:59:19,904 DEBUG   send: 0x0 0x4 0x0 0x0 0x0 0xb 0x1 0x4 0x8 0x1 0xa8 0x0 0x28 0x0 0x0 0x0 0x6
2026-07-24 19:59:20,916 DEBUG   recv: 0x0 0x5 0x0 0x0 0x0 0x6 0x1 0x1 0x0 0x0 0x0 0x3 old_data:  addr=None
2026-07-24 19:59:20,916 DEBUG   Processing: 0x0 0x5 0x0 0x0 0x0 0x6 0x1 0x1 0x0 0x0 0x0 0x3
2026-07-24 19:59:20,916 DEBUG   decoded PDU function_code(1 sub -1) -> ReadCoilsRequest(dev_id=0, transaction_id=0, address=0, count=3, bits=[], registers=[], status=1) 
2026-07-24 19:59:20,916 DEBUG   Frame advanced, resetting header!!
2026-07-24 19:59:20,917 DEBUG   [PLC] READ  fx=1 addr=0 count=3 -> [1, 0, 0]
2026-07-24 19:59:20,917 DEBUG   send: 0x0 0x5 0x0 0x0 0x0 0x4 0x1 0x1 0x1 0x1
2026-07-24 19:59:20,918 DEBUG   recv: 0x0 0x6 0x0 0x0 0x0 0x6 0x1 0x2 0x0 0x0 0x0 0x3 old_data:  addr=None
2026-07-24 19:59:20,918 DEBUG   Processing: 0x0 0x6 0x0 0x0 0x0 0x6 0x1 0x2 0x0 0x0 0x0 0x3
2026-07-24 19:59:20,918 DEBUG   decoded PDU function_code(2 sub -1) -> ReadDiscreteInputsRequest(dev_id=0, transaction_id=0, address=0, count=3, bits=[], registers=[], status=1) 
2026-07-24 19:59:20,918 DEBUG   Frame advanced, resetting header!!
2026-07-24 19:59:20,919 DEBUG   [PLC] READ  fx=2 addr=0 count=3 -> [0, 0, 0]
2026-07-24 19:59:20,919 DEBUG   send: 0x0 0x6 0x0 0x0 0x0 0x4 0x1 0x2 0x1 0x0
2026-07-24 19:59:20,919 DEBUG   recv: 0x0 0x7 0x0 0x0 0x0 0x6 0x1 0x3 0x0 0x0 0x0 0x3 old_data:  addr=None
2026-07-24 19:59:20,920 DEBUG   Processing: 0x0 0x7 0x0 0x0 0x0 0x6 0x1 0x3 0x0 0x0 0x0 0x3
2026-07-24 19:59:20,920 DEBUG   decoded PDU function_code(3 sub -1) -> ReadHoldingRegistersRequest(dev_id=0, transaction_id=0, address=0, count=3, bits=[], registers=[], status=1) 
2026-07-24 19:59:20,920 DEBUG   Frame advanced, resetting header!!
2026-07-24 19:59:20,921 DEBUG   validate: fc-[3] address-1: count-3
2026-07-24 19:59:20,921 DEBUG   [PLC] READ  fx=3 addr=0 count=3 -> [500, 50, 100]
2026-07-24 19:59:20,921 DEBUG   send: 0x0 0x7 0x0 0x0 0x0 0x9 0x1 0x3 0x6 0x1 0xf4 0x0 0x32 0x0 0x64
2026-07-24 19:59:20,922 DEBUG   recv: 0x0 0x8 0x0 0x0 0x0 0x6 0x1 0x4 0x0 0x0 0x0 0x4 old_data:  addr=None
2026-07-24 19:59:20,922 DEBUG   Processing: 0x0 0x8 0x0 0x0 0x0 0x6 0x1 0x4 0x0 0x0 0x0 0x4
2026-07-24 19:59:20,922 DEBUG   decoded PDU function_code(4 sub -1) -> ReadInputRegistersRequest(dev_id=0, transaction_id=0, address=0, count=4, bits=[], registers=[], status=1) 
2026-07-24 19:59:20,922 DEBUG   Frame advanced, resetting header!!
2026-07-24 19:59:20,923 DEBUG   validate: fc-[4] address-1: count-4
2026-07-24 19:59:20,923 DEBUG   [PLC] READ  fx=4 addr=0 count=4 -> [444, 40, 0, 7]
2026-07-24 19:59:20,923 DEBUG   send: 0x0 0x8 0x0 0x0 0x0 0xb 0x1 0x4 0x8 0x1 0xbc 0x0 0x28 0x0 0x0 0x0 0x7
2026-07-24 19:59:21,935 DEBUG   recv: 0x0 0x9 0x0 0x0 0x0 0x6 0x1 0x1 0x0 0x0 0x0 0x3 old_data:  addr=None
2026-07-24 19:59:21,935 DEBUG   Processing: 0x0 0x9 0x0 0x0 0x0 0x6 0x1 0x1 0x0 0x0 0x0 0x3
2026-07-24 19:59:21,935 DEBUG   decoded PDU function_code(1 sub -1) -> ReadCoilsRequest(dev_id=0, transaction_id=0, address=0, count=3, bits=[], registers=[], status=1) 
2026-07-24 19:59:21,935 DEBUG   Frame advanced, resetting header!!
2026-07-24 19:59:21,936 DEBUG   [PLC] READ  fx=1 addr=0 count=3 -> [1, 0, 0]
2026-07-24 19:59:21,936 DEBUG   send: 0x0 0x9 0x0 0x0 0x0 0x4 0x1 0x1 0x1 0x1
2026-07-24 19:59:21,937 DEBUG   recv: 0x0 0xa 0x0 0x0 0x0 0x6 0x1 0x2 0x0 0x0 0x0 0x3 old_data:  addr=None
2026-07-24 19:59:21,937 DEBUG   Processing: 0x0 0xa 0x0 0x0 0x0 0x6 0x1 0x2 0x0 0x0 0x0 0x3
2026-07-24 19:59:21,937 DEBUG   decoded PDU function_code(2 sub -1) -> ReadDiscreteInputsRequest(dev_id=0, transaction_id=0, address=0, count=3, bits=[], registers=[], status=1) 
2026-07-24 19:59:21,937 DEBUG   Frame advanced, resetting header!!
2026-07-24 19:59:21,938 DEBUG   [PLC] READ  fx=2 addr=0 count=3 -> [0, 0, 0]
2026-07-24 19:59:21,938 DEBUG   send: 0x0 0xa 0x0 0x0 0x0 0x4 0x1 0x2 0x1 0x0
2026-07-24 19:59:21,939 DEBUG   recv: 0x0 0xb 0x0 0x0 0x0 0x6 0x1 0x3 0x0 0x0 0x0 0x3 old_data:  addr=None
2026-07-24 19:59:21,939 DEBUG   Processing: 0x0 0xb 0x0 0x0 0x0 0x6 0x1 0x3 0x0 0x0 0x0 0x3
2026-07-24 19:59:21,939 DEBUG   decoded PDU function_code(3 sub -1) -> ReadHoldingRegistersRequest(dev_id=0, transaction_id=0, address=0, count=3, bits=[], registers=[], status=1) 
2026-07-24 19:59:21,939 DEBUG   Frame advanced, resetting header!!
2026-07-24 19:59:21,940 DEBUG   validate: fc-[3] address-1: count-3
2026-07-24 19:59:21,940 DEBUG   [PLC] READ  fx=3 addr=0 count=3 -> [500, 50, 100]
2026-07-24 19:59:21,940 DEBUG   send: 0x0 0xb 0x0 0x0 0x0 0x9 0x1 0x3 0x6 0x1 0xf4 0x0 0x32 0x0 0x64
2026-07-24 19:59:21,941 DEBUG   recv: 0x0 0xc 0x0 0x0 0x0 0x6 0x1 0x4 0x0 0x0 0x0 0x4 old_data:  addr=None
2026-07-24 19:59:21,941 DEBUG   Processing: 0x0 0xc 0x0 0x0 0x0 0x6 0x1 0x4 0x0 0x0 0x0 0x4
2026-07-24 19:59:21,941 DEBUG   decoded PDU function_code(4 sub -1) -> ReadInputRegistersRequest(dev_id=0, transaction_id=0, address=0, count=4, bits=[], registers=[], status=1) 
2026-07-24 19:59:21,941 DEBUG   Frame advanced, resetting header!!
2026-07-24 19:59:21,941 DEBUG   validate: fc-[4] address-1: count-4
2026-07-24 19:59:21,941 DEBUG   [PLC] READ  fx=4 addr=0 count=4 -> [464, 40, 0, 8]
2026-07-24 19:59:21,941 DEBUG   send: 0x0 0xc 0x0 0x0 0x0 0xb 0x1 0x4 0x8 0x1 0xd0 0x0 0x28 0x0 0x0 0x0 0x8
2026-07-24 19:59:22,952 DEBUG   recv: 0x0 0xd 0x0 0x0 0x0 0x6 0x1 0x1 0x0 0x0 0x0 0x3 old_data:  addr=None
2026-07-24 19:59:22,952 DEBUG   Processing: 0x0 0xd 0x0 0x0 0x0 0x6 0x1 0x1 0x0 0x0 0x0 0x3
2026-07-24 19:59:22,952 DEBUG   decoded PDU function_code(1 sub -1) -> ReadCoilsRequest(dev_id=0, transaction_id=0, address=0, count=3, bits=[], registers=[], status=1) 
2026-07-24 19:59:22,953 DEBUG   Frame advanced, resetting header!!
2026-07-24 19:59:22,953 DEBUG   [PLC] READ  fx=1 addr=0 count=3 -> [1, 0, 0]
2026-07-24 19:59:22,953 DEBUG   send: 0x0 0xd 0x0 0x0 0x0 0x4 0x1 0x1 0x1 0x1
2026-07-24 19:59:22,954 DEBUG   recv: 0x0 0xe 0x0 0x0 0x0 0x6 0x1 0x2 0x0 0x0 0x0 0x3 old_data:  addr=None
2026-07-24 19:59:22,954 DEBUG   Processing: 0x0 0xe 0x0 0x0 0x0 0x6 0x1 0x2 0x0 0x0 0x0 0x3
2026-07-24 19:59:22,954 DEBUG   decoded PDU function_code(2 sub -1) -> ReadDiscreteInputsRequest(dev_id=0, transaction_id=0, address=0, count=3, bits=[], registers=[], status=1) 
2026-07-24 19:59:22,955 DEBUG   Frame advanced, resetting header!!
2026-07-24 19:59:22,955 DEBUG   [PLC] READ  fx=2 addr=0 count=3 -> [0, 0, 0]
2026-07-24 19:59:22,955 DEBUG   send: 0x0 0xe 0x0 0x0 0x0 0x4 0x1 0x2 0x1 0x0
2026-07-24 19:59:22,956 DEBUG   recv: 0x0 0xf 0x0 0x0 0x0 0x6 0x1 0x3 0x0 0x0 0x0 0x3 old_data:  addr=None
2026-07-24 19:59:22,956 DEBUG   Processing: 0x0 0xf 0x0 0x0 0x0 0x6 0x1 0x3 0x0 0x0 0x0 0x3
2026-07-24 19:59:22,956 DEBUG   decoded PDU function_code(3 sub -1) -> ReadHoldingRegistersRequest(dev_id=0, transaction_id=0, address=0, count=3, bits=[], registers=[], status=1) 
2026-07-24 19:59:22,956 DEBUG   Frame advanced, resetting header!!
2026-07-24 19:59:22,957 DEBUG   validate: fc-[3] address-1: count-3
2026-07-24 19:59:22,957 DEBUG   [PLC] READ  fx=3 addr=0 count=3 -> [500, 50, 100]
2026-07-24 19:59:22,957 DEBUG   send: 0x0 0xf 0x0 0x0 0x0 0x9 0x1 0x3 0x6 0x1 0xf4 0x0 0x32 0x0 0x64
2026-07-24 19:59:22,958 DEBUG   recv: 0x0 0x10 0x0 0x0 0x0 0x6 0x1 0x4 0x0 0x0 0x0 0x4 old_data:  addr=None
2026-07-24 19:59:22,958 DEBUG   Processing: 0x0 0x10 0x0 0x0 0x0 0x6 0x1 0x4 0x0 0x0 0x0 0x4
2026-07-24 19:59:22,958 DEBUG   decoded PDU function_code(4 sub -1) -> ReadInputRegistersRequest(dev_id=0, transaction_id=0, address=0, count=4, bits=[], registers=[], status=1) 
2026-07-24 19:59:22,958 DEBUG   Frame advanced, resetting header!!
2026-07-24 19:59:22,959 DEBUG   validate: fc-[4] address-1: count-4
2026-07-24 19:59:22,959 DEBUG   [PLC] READ  fx=4 addr=0 count=4 -> [484, 40, 0, 9]
2026-07-24 19:59:22,959 DEBUG   send: 0x0 0x10 0x0 0x0 0x0 0xb 0x1 0x4 0x8 0x1 0xe4 0x0 0x28 0x0 0x0 0x0 0x9
2026-07-24 19:59:23,971 DEBUG   recv: 0x0 0x11 0x0 0x0 0x0 0x6 0x1 0x1 0x0 0x0 0x0 0x3 old_data:  addr=None
2026-07-24 19:59:23,971 DEBUG   Processing: 0x0 0x11 0x0 0x0 0x0 0x6 0x1 0x1 0x0 0x0 0x0 0x3
2026-07-24 19:59:23,972 DEBUG   decoded PDU function_code(1 sub -1) -> ReadCoilsRequest(dev_id=0, transaction_id=0, address=0, count=3, bits=[], registers=[], status=1) 
2026-07-24 19:59:23,972 DEBUG   Frame advanced, resetting header!!
2026-07-24 19:59:23,972 DEBUG   [PLC] READ  fx=1 addr=0 count=3 -> [1, 0, 0]
2026-07-24 19:59:23,972 DEBUG   send: 0x0 0x11 0x0 0x0 0x0 0x4 0x1 0x1 0x1 0x1
2026-07-24 19:59:23,973 DEBUG   recv: 0x0 0x12 0x0 0x0 0x0 0x6 0x1 0x2 0x0 0x0 0x0 0x3 old_data:  addr=None
2026-07-24 19:59:23,973 DEBUG   Processing: 0x0 0x12 0x0 0x0 0x0 0x6 0x1 0x2 0x0 0x0 0x0 0x3
2026-07-24 19:59:23,973 DEBUG   decoded PDU function_code(2 sub -1) -> ReadDiscreteInputsRequest(dev_id=0, transaction_id=0, address=0, count=3, bits=[], registers=[], status=1) 
2026-07-24 19:59:23,974 DEBUG   Frame advanced, resetting header!!
2026-07-24 19:59:23,974 DEBUG   [PLC] READ  fx=2 addr=0 count=3 -> [0, 0, 0]
2026-07-24 19:59:23,974 DEBUG   send: 0x0 0x12 0x0 0x0 0x0 0x4 0x1 0x2 0x1 0x0
2026-07-24 19:59:23,975 DEBUG   recv: 0x0 0x13 0x0 0x0 0x0 0x6 0x1 0x3 0x0 0x0 0x0 0x3 old_data:  addr=None
2026-07-24 19:59:23,975 DEBUG   Processing: 0x0 0x13 0x0 0x0 0x0 0x6 0x1 0x3 0x0 0x0 0x0 0x3
2026-07-24 19:59:23,975 DEBUG   decoded PDU function_code(3 sub -1) -> ReadHoldingRegistersRequest(dev_id=0, transaction_id=0, address=0, count=3, bits=[], registers=[], status=1) 
2026-07-24 19:59:23,976 DEBUG   Frame advanced, resetting header!!
2026-07-24 19:59:23,976 DEBUG   validate: fc-[3] address-1: count-3
2026-07-24 19:59:23,976 DEBUG   [PLC] READ  fx=3 addr=0 count=3 -> [500, 50, 100]
2026-07-24 19:59:23,976 DEBUG   send: 0x0 0x13 0x0 0x0 0x0 0x9 0x1 0x3 0x6 0x1 0xf4 0x0 0x32 0x0 0x64
2026-07-24 19:59:23,977 DEBUG   recv: 0x0 0x14 0x0 0x0 0x0 0x6 0x1 0x4 0x0 0x0 0x0 0x4 old_data:  addr=None
2026-07-24 19:59:23,977 DEBUG   Processing: 0x0 0x14 0x0 0x0 0x0 0x6 0x1 0x4 0x0 0x0 0x0 0x4
2026-07-24 19:59:23,977 DEBUG   decoded PDU function_code(4 sub -1) -> ReadInputRegistersRequest(dev_id=0, transaction_id=0, address=0, count=4, bits=[], registers=[], status=1) 
2026-07-24 19:59:23,978 DEBUG   Frame advanced, resetting header!!
2026-07-24 19:59:23,978 DEBUG   validate: fc-[4] address-1: count-4
2026-07-24 19:59:23,978 DEBUG   [PLC] READ  fx=4 addr=0 count=4 -> [504, 40, 0, 10]
2026-07-24 19:59:23,978 DEBUG   send: 0x0 0x14 0x0 0x0 0x0 0xb 0x1 0x4 0x8 0x1 0xf8 0x0 0x28 0x0 0x0 0x0 0xa
2026-07-24 19:59:24,992 DEBUG   recv: 0x0 0x15 0x0 0x0 0x0 0x6 0x1 0x1 0x0 0x0 0x0 0x3 old_data:  addr=None
2026-07-24 19:59:24,992 DEBUG   Processing: 0x0 0x15 0x0 0x0 0x0 0x6 0x1 0x1 0x0 0x0 0x0 0x3
2026-07-24 19:59:24,992 DEBUG   decoded PDU function_code(1 sub -1) -> ReadCoilsRequest(dev_id=0, transaction_id=0, address=0, count=3, bits=[], registers=[], status=1) 
2026-07-24 19:59:24,992 DEBUG   Frame advanced, resetting header!!
2026-07-24 19:59:24,993 DEBUG   [PLC] READ  fx=1 addr=0 count=3 -> [1, 0, 0]
2026-07-24 19:59:24,993 DEBUG   send: 0x0 0x15 0x0 0x0 0x0 0x4 0x1 0x1 0x1 0x1
2026-07-24 19:59:24,994 DEBUG   recv: 0x0 0x16 0x0 0x0 0x0 0x6 0x1 0x2 0x0 0x0 0x0 0x3 old_data:  addr=None
2026-07-24 19:59:24,994 DEBUG   Processing: 0x0 0x16 0x0 0x0 0x0 0x6 0x1 0x2 0x0 0x0 0x0 0x3
2026-07-24 19:59:24,994 DEBUG   decoded PDU function_code(2 sub -1) -> ReadDiscreteInputsRequest(dev_id=0, transaction_id=0, address=0, count=3, bits=[], registers=[], status=1) 
2026-07-24 19:59:24,994 DEBUG   Frame advanced, resetting header!!
2026-07-24 19:59:24,995 DEBUG   [PLC] READ  fx=2 addr=0 count=3 -> [0, 0, 0]
2026-07-24 19:59:24,995 DEBUG   send: 0x0 0x16 0x0 0x0 0x0 0x4 0x1 0x2 0x1 0x0
2026-07-24 19:59:24,996 DEBUG   recv: 0x0 0x17 0x0 0x0 0x0 0x6 0x1 0x3 0x0 0x0 0x0 0x3 old_data:  addr=None
2026-07-24 19:59:24,996 DEBUG   Processing: 0x0 0x17 0x0 0x0 0x0 0x6 0x1 0x3 0x0 0x0 0x0 0x3
2026-07-24 19:59:24,996 DEBUG   decoded PDU function_code(3 sub -1) -> ReadHoldingRegistersRequest(dev_id=0, transaction_id=0, address=0, count=3, bits=[], registers=[], status=1) 
2026-07-24 19:59:24,996 DEBUG   Frame advanced, resetting header!!
2026-07-24 19:59:24,997 DEBUG   validate: fc-[3] address-1: count-3
2026-07-24 19:59:24,997 DEBUG   [PLC] READ  fx=3 addr=0 count=3 -> [500, 50, 100]
2026-07-24 19:59:24,997 DEBUG   send: 0x0 0x17 0x0 0x0 0x0 0x9 0x1 0x3 0x6 0x1 0xf4 0x0 0x32 0x0 0x64
2026-07-24 19:59:24,998 DEBUG   recv: 0x0 0x18 0x0 0x0 0x0 0x6 0x1 0x4 0x0 0x0 0x0 0x4 old_data:  addr=None
2026-07-24 19:59:24,998 DEBUG   Processing: 0x0 0x18 0x0 0x0 0x0 0x6 0x1 0x4 0x0 0x0 0x0 0x4
2026-07-24 19:59:24,998 DEBUG   decoded PDU function_code(4 sub -1) -> ReadInputRegistersRequest(dev_id=0, transaction_id=0, address=0, count=4, bits=[], registers=[], status=1) 
2026-07-24 19:59:24,998 DEBUG   Frame advanced, resetting header!!
2026-07-24 19:59:24,999 DEBUG   validate: fc-[4] address-1: count-4
2026-07-24 19:59:24,999 DEBUG   [PLC] READ  fx=4 addr=0 count=4 -> [528, 40, 0, 11]
2026-07-24 19:59:24,999 DEBUG   send: 0x0 0x18 0x0 0x0 0x0 0xb 0x1 0x4 0x8 0x2 0x10 0x0 0x28 0x0 0x0 0x0 0xb
2026-07-24 19:59:26,012 DEBUG   recv: 0x0 0x19 0x0 0x0 0x0 0x6 0x1 0x1 0x0 0x0 0x0 0x3 old_data:  addr=None
2026-07-24 19:59:26,012 DEBUG   Processing: 0x0 0x19 0x0 0x0 0x0 0x6 0x1 0x1 0x0 0x0 0x0 0x3
2026-07-24 19:59:26,012 DEBUG   decoded PDU function_code(1 sub -1) -> ReadCoilsRequest(dev_id=0, transaction_id=0, address=0, count=3, bits=[], registers=[], status=1) 
2026-07-24 19:59:26,013 DEBUG   Frame advanced, resetting header!!
2026-07-24 19:59:26,013 DEBUG   [PLC] READ  fx=1 addr=0 count=3 -> [1, 0, 0]
2026-07-24 19:59:26,013 DEBUG   send: 0x0 0x19 0x0 0x0 0x0 0x4 0x1 0x1 0x1 0x1
2026-07-24 19:59:26,014 DEBUG   recv: 0x0 0x1a 0x0 0x0 0x0 0x6 0x1 0x2 0x0 0x0 0x0 0x3 old_data:  addr=None
2026-07-24 19:59:26,014 DEBUG   Processing: 0x0 0x1a 0x0 0x0 0x0 0x6 0x1 0x2 0x0 0x0 0x0 0x3
2026-07-24 19:59:26,014 DEBUG   decoded PDU function_code(2 sub -1) -> ReadDiscreteInputsRequest(dev_id=0, transaction_id=0, address=0, count=3, bits=[], registers=[], status=1) 
2026-07-24 19:59:26,015 DEBUG   Frame advanced, resetting header!!
2026-07-24 19:59:26,015 DEBUG   [PLC] READ  fx=2 addr=0 count=3 -> [0, 0, 0]
2026-07-24 19:59:26,015 DEBUG   send: 0x0 0x1a 0x0 0x0 0x0 0x4 0x1 0x2 0x1 0x0
2026-07-24 19:59:26,016 DEBUG   recv: 0x0 0x1b 0x0 0x0 0x0 0x6 0x1 0x3 0x0 0x0 0x0 0x3 old_data:  addr=None
2026-07-24 19:59:26,016 DEBUG   Processing: 0x0 0x1b 0x0 0x0 0x0 0x6 0x1 0x3 0x0 0x0 0x0 0x3
2026-07-24 19:59:26,016 DEBUG   decoded PDU function_code(3 sub -1) -> ReadHoldingRegistersRequest(dev_id=0, transaction_id=0, address=0, count=3, bits=[], registers=[], status=1) 
2026-07-24 19:59:26,016 DEBUG   Frame advanced, resetting header!!
2026-07-24 19:59:26,017 DEBUG   validate: fc-[3] address-1: count-3
2026-07-24 19:59:26,017 DEBUG   [PLC] READ  fx=3 addr=0 count=3 -> [500, 50, 100]
2026-07-24 19:59:26,017 DEBUG   send: 0x0 0x1b 0x0 0x0 0x0 0x9 0x1 0x3 0x6 0x1 0xf4 0x0 0x32 0x0 0x64
2026-07-24 19:59:26,018 DEBUG   recv: 0x0 0x1c 0x0 0x0 0x0 0x6 0x1 0x4 0x0 0x0 0x0 0x4 old_data:  addr=None
2026-07-24 19:59:26,018 DEBUG   Processing: 0x0 0x1c 0x0 0x0 0x0 0x6 0x1 0x4 0x0 0x0 0x0 0x4
2026-07-24 19:59:26,018 DEBUG   decoded PDU function_code(4 sub -1) -> ReadInputRegistersRequest(dev_id=0, transaction_id=0, address=0, count=4, bits=[], registers=[], status=1) 
2026-07-24 19:59:26,018 DEBUG   Frame advanced, resetting header!!
2026-07-24 19:59:26,019 DEBUG   validate: fc-[4] address-1: count-4
2026-07-24 19:59:26,019 DEBUG   [PLC] READ  fx=4 addr=0 count=4 -> [548, 40, 0, 12]
2026-07-24 19:59:26,019 DEBUG   send: 0x0 0x1c 0x0 0x0 0x0 0xb 0x1 0x4 0x8 0x2 0x24 0x0 0x28 0x0 0x0 0x0 0xc
2026-07-24 19:59:27,032 DEBUG   recv: 0x0 0x1d 0x0 0x0 0x0 0x6 0x1 0x1 0x0 0x0 0x0 0x3 old_data:  addr=None
2026-07-24 19:59:27,032 DEBUG   Processing: 0x0 0x1d 0x0 0x0 0x0 0x6 0x1 0x1 0x0 0x0 0x0 0x3
2026-07-24 19:59:27,032 DEBUG   decoded PDU function_code(1 sub -1) -> ReadCoilsRequest(dev_id=0, transaction_id=0, address=0, count=3, bits=[], registers=[], status=1) 
2026-07-24 19:59:27,032 DEBUG   Frame advanced, resetting header!!
2026-07-24 19:59:27,033 DEBUG   [PLC] READ  fx=1 addr=0 count=3 -> [1, 0, 0]
2026-07-24 19:59:27,033 DEBUG   send: 0x0 0x1d 0x0 0x0 0x0 0x4 0x1 0x1 0x1 0x1
2026-07-24 19:59:27,034 DEBUG   recv: 0x0 0x1e 0x0 0x0 0x0 0x6 0x1 0x2 0x0 0x0 0x0 0x3 old_data:  addr=None
2026-07-24 19:59:27,034 DEBUG   Processing: 0x0 0x1e 0x0 0x0 0x0 0x6 0x1 0x2 0x0 0x0 0x0 0x3
2026-07-24 19:59:27,034 DEBUG   decoded PDU function_code(2 sub -1) -> ReadDiscreteInputsRequest(dev_id=0, transaction_id=0, address=0, count=3, bits=[], registers=[], status=1) 
2026-07-24 19:59:27,034 DEBUG   Frame advanced, resetting header!!
2026-07-24 19:59:27,035 DEBUG   [PLC] READ  fx=2 addr=0 count=3 -> [0, 0, 0]
2026-07-24 19:59:27,035 DEBUG   send: 0x0 0x1e 0x0 0x0 0x0 0x4 0x1 0x2 0x1 0x0
2026-07-24 19:59:27,036 DEBUG   recv: 0x0 0x1f 0x0 0x0 0x0 0x6 0x1 0x3 0x0 0x0 0x0 0x3 old_data:  addr=None
2026-07-24 19:59:27,036 DEBUG   Processing: 0x0 0x1f 0x0 0x0 0x0 0x6 0x1 0x3 0x0 0x0 0x0 0x3
2026-07-24 19:59:27,036 DEBUG   decoded PDU function_code(3 sub -1) -> ReadHoldingRegistersRequest(dev_id=0, transaction_id=0, address=0, count=3, bits=[], registers=[], status=1) 
2026-07-24 19:59:27,036 DEBUG   Frame advanced, resetting header!!
2026-07-24 19:59:27,037 DEBUG   validate: fc-[3] address-1: count-3
2026-07-24 19:59:27,037 DEBUG   [PLC] READ  fx=3 addr=0 count=3 -> [500, 50, 100]
2026-07-24 19:59:27,037 DEBUG   send: 0x0 0x1f 0x0 0x0 0x0 0x9 0x1 0x3 0x6 0x1 0xf4 0x0 0x32 0x0 0x64
2026-07-24 19:59:27,038 DEBUG   recv: 0x0 0x20 0x0 0x0 0x0 0x6 0x1 0x4 0x0 0x0 0x0 0x4 old_data:  addr=None
2026-07-24 19:59:27,038 DEBUG   Processing: 0x0 0x20 0x0 0x0 0x0 0x6 0x1 0x4 0x0 0x0 0x0 0x4
2026-07-24 19:59:27,038 DEBUG   decoded PDU function_code(4 sub -1) -> ReadInputRegistersRequest(dev_id=0, transaction_id=0, address=0, count=4, bits=[], registers=[], status=1) 
2026-07-24 19:59:27,038 DEBUG   Frame advanced, resetting header!!
2026-07-24 19:59:27,039 DEBUG   validate: fc-[4] address-1: count-4
2026-07-24 19:59:27,039 DEBUG   [PLC] READ  fx=4 addr=0 count=4 -> [568, 40, 0, 13]
2026-07-24 19:59:27,039 DEBUG   send: 0x0 0x20 0x0 0x0 0x0 0xb 0x1 0x4 0x8 0x2 0x38 0x0 0x28 0x0 0x0 0x0 0xd
2026-07-24 19:59:28,057 DEBUG   recv: 0x0 0x21 0x0 0x0 0x0 0x6 0x1 0x1 0x0 0x0 0x0 0x3 old_data:  addr=None
2026-07-24 19:59:28,057 DEBUG   Processing: 0x0 0x21 0x0 0x0 0x0 0x6 0x1 0x1 0x0 0x0 0x0 0x3
2026-07-24 19:59:28,057 DEBUG   decoded PDU function_code(1 sub -1) -> ReadCoilsRequest(dev_id=0, transaction_id=0, address=0, count=3, bits=[], registers=[], status=1) 
2026-07-24 19:59:28,057 DEBUG   Frame advanced, resetting header!!
2026-07-24 19:59:28,058 DEBUG   [PLC] READ  fx=1 addr=0 count=3 -> [1, 0, 0]
2026-07-24 19:59:28,058 DEBUG   send: 0x0 0x21 0x0 0x0 0x0 0x4 0x1 0x1 0x1 0x1
2026-07-24 19:59:28,059 DEBUG   recv: 0x0 0x22 0x0 0x0 0x0 0x6 0x1 0x2 0x0 0x0 0x0 0x3 old_data:  addr=None
2026-07-24 19:59:28,059 DEBUG   Processing: 0x0 0x22 0x0 0x0 0x0 0x6 0x1 0x2 0x0 0x0 0x0 0x3
2026-07-24 19:59:28,059 DEBUG   decoded PDU function_code(2 sub -1) -> ReadDiscreteInputsRequest(dev_id=0, transaction_id=0, address=0, count=3, bits=[], registers=[], status=1) 
2026-07-24 19:59:28,059 DEBUG   Frame advanced, resetting header!!
2026-07-24 19:59:28,060 DEBUG   [PLC] READ  fx=2 addr=0 count=3 -> [0, 0, 0]
2026-07-24 19:59:28,060 DEBUG   send: 0x0 0x22 0x0 0x0 0x0 0x4 0x1 0x2 0x1 0x0
2026-07-24 19:59:28,060 DEBUG   recv: 0x0 0x23 0x0 0x0 0x0 0x6 0x1 0x3 0x0 0x0 0x0 0x3 old_data:  addr=None
2026-07-24 19:59:28,061 DEBUG   Processing: 0x0 0x23 0x0 0x0 0x0 0x6 0x1 0x3 0x0 0x0 0x0 0x3
2026-07-24 19:59:28,061 DEBUG   decoded PDU function_code(3 sub -1) -> ReadHoldingRegistersRequest(dev_id=0, transaction_id=0, address=0, count=3, bits=[], registers=[], status=1) 
2026-07-24 19:59:28,061 DEBUG   Frame advanced, resetting header!!
2026-07-24 19:59:28,061 DEBUG   validate: fc-[3] address-1: count-3
2026-07-24 19:59:28,062 DEBUG   [PLC] READ  fx=3 addr=0 count=3 -> [500, 50, 100]
2026-07-24 19:59:28,062 DEBUG   send: 0x0 0x23 0x0 0x0 0x0 0x9 0x1 0x3 0x6 0x1 0xf4 0x0 0x32 0x0 0x64
2026-07-24 19:59:28,062 DEBUG   recv: 0x0 0x24 0x0 0x0 0x0 0x6 0x1 0x4 0x0 0x0 0x0 0x4 old_data:  addr=None
2026-07-24 19:59:28,063 DEBUG   Processing: 0x0 0x24 0x0 0x0 0x0 0x6 0x1 0x4 0x0 0x0 0x0 0x4
2026-07-24 19:59:28,063 DEBUG   decoded PDU function_code(4 sub -1) -> ReadInputRegistersRequest(dev_id=0, transaction_id=0, address=0, count=4, bits=[], registers=[], status=1) 
2026-07-24 19:59:28,063 DEBUG   Frame advanced, resetting header!!
2026-07-24 19:59:28,064 DEBUG   validate: fc-[4] address-1: count-4
2026-07-24 19:59:28,064 DEBUG   [PLC] READ  fx=4 addr=0 count=4 -> [588, 40, 0, 14]
2026-07-24 19:59:28,064 DEBUG   send: 0x0 0x24 0x0 0x0 0x0 0xb 0x1 0x4 0x8 0x2 0x4c 0x0 0x28 0x0 0x0 0x0 0xe
2026-07-24 19:59:29,077 DEBUG   recv: 0x0 0x25 0x0 0x0 0x0 0x6 0x1 0x1 0x0 0x0 0x0 0x3 old_data:  addr=None
2026-07-24 19:59:29,077 DEBUG   Processing: 0x0 0x25 0x0 0x0 0x0 0x6 0x1 0x1 0x0 0x0 0x0 0x3
2026-07-24 19:59:29,077 DEBUG   decoded PDU function_code(1 sub -1) -> ReadCoilsRequest(dev_id=0, transaction_id=0, address=0, count=3, bits=[], registers=[], status=1) 
2026-07-24 19:59:29,077 DEBUG   Frame advanced, resetting header!!
2026-07-24 19:59:29,078 DEBUG   [PLC] READ  fx=1 addr=0 count=3 -> [1, 0, 0]
2026-07-24 19:59:29,078 DEBUG   send: 0x0 0x25 0x0 0x0 0x0 0x4 0x1 0x1 0x1 0x1
2026-07-24 19:59:29,079 DEBUG   recv: 0x0 0x26 0x0 0x0 0x0 0x6 0x1 0x2 0x0 0x0 0x0 0x3 old_data:  addr=None
2026-07-24 19:59:29,079 DEBUG   Processing: 0x0 0x26 0x0 0x0 0x0 0x6 0x1 0x2 0x0 0x0 0x0 0x3
2026-07-24 19:59:29,079 DEBUG   decoded PDU function_code(2 sub -1) -> ReadDiscreteInputsRequest(dev_id=0, transaction_id=0, address=0, count=3, bits=[], registers=[], status=1) 
2026-07-24 19:59:29,079 DEBUG   Frame advanced, resetting header!!
2026-07-24 19:59:29,080 DEBUG   [PLC] READ  fx=2 addr=0 count=3 -> [0, 0, 0]
2026-07-24 19:59:29,080 DEBUG   send: 0x0 0x26 0x0 0x0 0x0 0x4 0x1 0x2 0x1 0x0
2026-07-24 19:59:29,081 DEBUG   recv: 0x0 0x27 0x0 0x0 0x0 0x6 0x1 0x3 0x0 0x0 0x0 0x3 old_data:  addr=None
2026-07-24 19:59:29,081 DEBUG   Processing: 0x0 0x27 0x0 0x0 0x0 0x6 0x1 0x3 0x0 0x0 0x0 0x3
2026-07-24 19:59:29,081 DEBUG   decoded PDU function_code(3 sub -1) -> ReadHoldingRegistersRequest(dev_id=0, transaction_id=0, address=0, count=3, bits=[], registers=[], status=1) 
2026-07-24 19:59:29,081 DEBUG   Frame advanced, resetting header!!
2026-07-24 19:59:29,082 DEBUG   validate: fc-[3] address-1: count-3
2026-07-24 19:59:29,082 DEBUG   [PLC] READ  fx=3 addr=0 count=3 -> [500, 50, 100]
2026-07-24 19:59:29,082 DEBUG   send: 0x0 0x27 0x0 0x0 0x0 0x9 0x1 0x3 0x6 0x1 0xf4 0x0 0x32 0x0 0x64
2026-07-24 19:59:29,083 DEBUG   recv: 0x0 0x28 0x0 0x0 0x0 0x6 0x1 0x4 0x0 0x0 0x0 0x4 old_data:  addr=None
2026-07-24 19:59:29,083 DEBUG   Processing: 0x0 0x28 0x0 0x0 0x0 0x6 0x1 0x4 0x0 0x0 0x0 0x4
2026-07-24 19:59:29,083 DEBUG   decoded PDU function_code(4 sub -1) -> ReadInputRegistersRequest(dev_id=0, transaction_id=0, address=0, count=4, bits=[], registers=[], status=1) 
2026-07-24 19:59:29,083 DEBUG   Frame advanced, resetting header!!
2026-07-24 19:59:29,084 DEBUG   validate: fc-[4] address-1: count-4
2026-07-24 19:59:29,084 DEBUG   [PLC] READ  fx=4 addr=0 count=4 -> [608, 40, 0, 15]
2026-07-24 19:59:29,084 DEBUG   send: 0x0 0x28 0x0 0x0 0x0 0xb 0x1 0x4 0x8 0x2 0x60 0x0 0x28 0x0 0x0 0x0 0xf
2026-07-24 19:59:30,099 DEBUG   recv: 0x0 0x29 0x0 0x0 0x0 0x6 0x1 0x1 0x0 0x0 0x0 0x3 old_data:  addr=None
2026-07-24 19:59:30,099 DEBUG   Processing: 0x0 0x29 0x0 0x0 0x0 0x6 0x1 0x1 0x0 0x0 0x0 0x3
2026-07-24 19:59:30,099 DEBUG   decoded PDU function_code(1 sub -1) -> ReadCoilsRequest(dev_id=0, transaction_id=0, address=0, count=3, bits=[], registers=[], status=1) 
2026-07-24 19:59:30,099 DEBUG   Frame advanced, resetting header!!
2026-07-24 19:59:30,100 DEBUG   [PLC] READ  fx=1 addr=0 count=3 -> [1, 0, 0]
2026-07-24 19:59:30,100 DEBUG   send: 0x0 0x29 0x0 0x0 0x0 0x4 0x1 0x1 0x1 0x1
2026-07-24 19:59:30,101 DEBUG   recv: 0x0 0x2a 0x0 0x0 0x0 0x6 0x1 0x2 0x0 0x0 0x0 0x3 old_data:  addr=None
2026-07-24 19:59:30,101 DEBUG   Processing: 0x0 0x2a 0x0 0x0 0x0 0x6 0x1 0x2 0x0 0x0 0x0 0x3
2026-07-24 19:59:30,101 DEBUG   decoded PDU function_code(2 sub -1) -> ReadDiscreteInputsRequest(dev_id=0, transaction_id=0, address=0, count=3, bits=[], registers=[], status=1) 
2026-07-24 19:59:30,101 DEBUG   Frame advanced, resetting header!!
2026-07-24 19:59:30,102 DEBUG   [PLC] READ  fx=2 addr=0 count=3 -> [0, 0, 0]
2026-07-24 19:59:30,102 DEBUG   send: 0x0 0x2a 0x0 0x0 0x0 0x4 0x1 0x2 0x1 0x0
2026-07-24 19:59:30,103 DEBUG   recv: 0x0 0x2b 0x0 0x0 0x0 0x6 0x1 0x3 0x0 0x0 0x0 0x3 old_data:  addr=None
2026-07-24 19:59:30,103 DEBUG   Processing: 0x0 0x2b 0x0 0x0 0x0 0x6 0x1 0x3 0x0 0x0 0x0 0x3
2026-07-24 19:59:30,103 DEBUG   decoded PDU function_code(3 sub -1) -> ReadHoldingRegistersRequest(dev_id=0, transaction_id=0, address=0, count=3, bits=[], registers=[], status=1) 
2026-07-24 19:59:30,103 DEBUG   Frame advanced, resetting header!!
2026-07-24 19:59:30,103 DEBUG   validate: fc-[3] address-1: count-3
2026-07-24 19:59:30,104 DEBUG   [PLC] READ  fx=3 addr=0 count=3 -> [500, 50, 100]
2026-07-24 19:59:30,104 DEBUG   send: 0x0 0x2b 0x0 0x0 0x0 0x9 0x1 0x3 0x6 0x1 0xf4 0x0 0x32 0x0 0x64
2026-07-24 19:59:30,105 DEBUG   recv: 0x0 0x2c 0x0 0x0 0x0 0x6 0x1 0x4 0x0 0x0 0x0 0x4 old_data:  addr=None
2026-07-24 19:59:30,105 DEBUG   Processing: 0x0 0x2c 0x0 0x0 0x0 0x6 0x1 0x4 0x0 0x0 0x0 0x4
2026-07-24 19:59:30,105 DEBUG   decoded PDU function_code(4 sub -1) -> ReadInputRegistersRequest(dev_id=0, transaction_id=0, address=0, count=4, bits=[], registers=[], status=1) 
2026-07-24 19:59:30,105 DEBUG   Frame advanced, resetting header!!
2026-07-24 19:59:30,106 DEBUG   validate: fc-[4] address-1: count-4
2026-07-24 19:59:30,106 DEBUG   [PLC] READ  fx=4 addr=0 count=4 -> [628, 40, 0, 16]
2026-07-24 19:59:30,106 DEBUG   send: 0x0 0x2c 0x0 0x0 0x0 0xb 0x1 0x4 0x8 0x2 0x74 0x0 0x28 0x0 0x0 0x0 0x10
2026-07-24 19:59:31,119 DEBUG   recv: 0x0 0x2d 0x0 0x0 0x0 0x6 0x1 0x1 0x0 0x0 0x0 0x3 old_data:  addr=None
2026-07-24 19:59:31,119 DEBUG   Processing: 0x0 0x2d 0x0 0x0 0x0 0x6 0x1 0x1 0x0 0x0 0x0 0x3
2026-07-24 19:59:31,119 DEBUG   decoded PDU function_code(1 sub -1) -> ReadCoilsRequest(dev_id=0, transaction_id=0, address=0, count=3, bits=[], registers=[], status=1) 
2026-07-24 19:59:31,120 DEBUG   Frame advanced, resetting header!!
2026-07-24 19:59:31,120 DEBUG   [PLC] READ  fx=1 addr=0 count=3 -> [1, 0, 0]
2026-07-24 19:59:31,120 DEBUG   send: 0x0 0x2d 0x0 0x0 0x0 0x4 0x1 0x1 0x1 0x1
2026-07-24 19:59:31,121 DEBUG   recv: 0x0 0x2e 0x0 0x0 0x0 0x6 0x1 0x2 0x0 0x0 0x0 0x3 old_data:  addr=None
2026-07-24 19:59:31,121 DEBUG   Processing: 0x0 0x2e 0x0 0x0 0x0 0x6 0x1 0x2 0x0 0x0 0x0 0x3
2026-07-24 19:59:31,121 DEBUG   decoded PDU function_code(2 sub -1) -> ReadDiscreteInputsRequest(dev_id=0, transaction_id=0, address=0, count=3, bits=[], registers=[], status=1) 
2026-07-24 19:59:31,121 DEBUG   Frame advanced, resetting header!!
2026-07-24 19:59:31,122 DEBUG   [PLC] READ  fx=2 addr=0 count=3 -> [0, 0, 0]
2026-07-24 19:59:31,122 DEBUG   send: 0x0 0x2e 0x0 0x0 0x0 0x4 0x1 0x2 0x1 0x0
2026-07-24 19:59:31,123 DEBUG   recv: 0x0 0x2f 0x0 0x0 0x0 0x6 0x1 0x3 0x0 0x0 0x0 0x3 old_data:  addr=None
2026-07-24 19:59:31,123 DEBUG   Processing: 0x0 0x2f 0x0 0x0 0x0 0x6 0x1 0x3 0x0 0x0 0x0 0x3
2026-07-24 19:59:31,123 DEBUG   decoded PDU function_code(3 sub -1) -> ReadHoldingRegistersRequest(dev_id=0, transaction_id=0, address=0, count=3, bits=[], registers=[], status=1) 
2026-07-24 19:59:31,123 DEBUG   Frame advanced, resetting header!!
2026-07-24 19:59:31,124 DEBUG   validate: fc-[3] address-1: count-3
2026-07-24 19:59:31,124 DEBUG   [PLC] READ  fx=3 addr=0 count=3 -> [500, 50, 100]
2026-07-24 19:59:31,124 DEBUG   send: 0x0 0x2f 0x0 0x0 0x0 0x9 0x1 0x3 0x6 0x1 0xf4 0x0 0x32 0x0 0x64
2026-07-24 19:59:31,125 DEBUG   recv: 0x0 0x30 0x0 0x0 0x0 0x6 0x1 0x4 0x0 0x0 0x0 0x4 old_data:  addr=None
2026-07-24 19:59:31,125 DEBUG   Processing: 0x0 0x30 0x0 0x0 0x0 0x6 0x1 0x4 0x0 0x0 0x0 0x4
2026-07-24 19:59:31,125 DEBUG   decoded PDU function_code(4 sub -1) -> ReadInputRegistersRequest(dev_id=0, transaction_id=0, address=0, count=4, bits=[], registers=[], status=1) 
2026-07-24 19:59:31,125 DEBUG   Frame advanced, resetting header!!
2026-07-24 19:59:31,126 DEBUG   validate: fc-[4] address-1: count-4
2026-07-24 19:59:31,126 DEBUG   [PLC] READ  fx=4 addr=0 count=4 -> [648, 40, 0, 17]
2026-07-24 19:59:31,126 DEBUG   send: 0x0 0x30 0x0 0x0 0x0 0xb 0x1 0x4 0x8 0x2 0x88 0x0 0x28 0x0 0x0 0x0 0x11
2026-07-24 19:59:32,139 DEBUG   recv: 0x0 0x31 0x0 0x0 0x0 0x6 0x1 0x1 0x0 0x0 0x0 0x3 old_data:  addr=None
2026-07-24 19:59:32,140 DEBUG   Processing: 0x0 0x31 0x0 0x0 0x0 0x6 0x1 0x1 0x0 0x0 0x0 0x3
2026-07-24 19:59:32,140 DEBUG   decoded PDU function_code(1 sub -1) -> ReadCoilsRequest(dev_id=0, transaction_id=0, address=0, count=3, bits=[], registers=[], status=1) 
2026-07-24 19:59:32,140 DEBUG   Frame advanced, resetting header!!
2026-07-24 19:59:32,140 DEBUG   [PLC] READ  fx=1 addr=0 count=3 -> [1, 0, 0]
2026-07-24 19:59:32,141 DEBUG   send: 0x0 0x31 0x0 0x0 0x0 0x4 0x1 0x1 0x1 0x1
2026-07-24 19:59:32,141 DEBUG   recv: 0x0 0x32 0x0 0x0 0x0 0x6 0x1 0x2 0x0 0x0 0x0 0x3 old_data:  addr=None
2026-07-24 19:59:32,142 DEBUG   Processing: 0x0 0x32 0x0 0x0 0x0 0x6 0x1 0x2 0x0 0x0 0x0 0x3
2026-07-24 19:59:32,142 DEBUG   decoded PDU function_code(2 sub -1) -> ReadDiscreteInputsRequest(dev_id=0, transaction_id=0, address=0, count=3, bits=[], registers=[], status=1) 
2026-07-24 19:59:32,142 DEBUG   Frame advanced, resetting header!!
2026-07-24 19:59:32,142 DEBUG   [PLC] READ  fx=2 addr=0 count=3 -> [0, 0, 0]
2026-07-24 19:59:32,142 DEBUG   send: 0x0 0x32 0x0 0x0 0x0 0x4 0x1 0x2 0x1 0x0
2026-07-24 19:59:32,143 DEBUG   recv: 0x0 0x33 0x0 0x0 0x0 0x6 0x1 0x3 0x0 0x0 0x0 0x3 old_data:  addr=None
2026-07-24 19:59:32,143 DEBUG   Processing: 0x0 0x33 0x0 0x0 0x0 0x6 0x1 0x3 0x0 0x0 0x0 0x3
2026-07-24 19:59:32,144 DEBUG   decoded PDU function_code(3 sub -1) -> ReadHoldingRegistersRequest(dev_id=0, transaction_id=0, address=0, count=3, bits=[], registers=[], status=1) 
2026-07-24 19:59:32,144 DEBUG   Frame advanced, resetting header!!
2026-07-24 19:59:32,144 DEBUG   validate: fc-[3] address-1: count-3
2026-07-24 19:59:32,144 DEBUG   [PLC] READ  fx=3 addr=0 count=3 -> [500, 50, 100]
2026-07-24 19:59:32,145 DEBUG   send: 0x0 0x33 0x0 0x0 0x0 0x9 0x1 0x3 0x6 0x1 0xf4 0x0 0x32 0x0 0x64
2026-07-24 19:59:32,145 DEBUG   recv: 0x0 0x34 0x0 0x0 0x0 0x6 0x1 0x4 0x0 0x0 0x0 0x4 old_data:  addr=None
2026-07-24 19:59:32,145 DEBUG   Processing: 0x0 0x34 0x0 0x0 0x0 0x6 0x1 0x4 0x0 0x0 0x0 0x4
2026-07-24 19:59:32,146 DEBUG   decoded PDU function_code(4 sub -1) -> ReadInputRegistersRequest(dev_id=0, transaction_id=0, address=0, count=4, bits=[], registers=[], status=1) 
2026-07-24 19:59:32,146 DEBUG   Frame advanced, resetting header!!
2026-07-24 19:59:32,146 DEBUG   validate: fc-[4] address-1: count-4
2026-07-24 19:59:32,146 DEBUG   [PLC] READ  fx=4 addr=0 count=4 -> [668, 40, 0, 18]
2026-07-24 19:59:32,147 DEBUG   send: 0x0 0x34 0x0 0x0 0x0 0xb 0x1 0x4 0x8 0x2 0x9c 0x0 0x28 0x0 0x0 0x0 0x12
2026-07-24 19:59:33,169 DEBUG   recv: 0x0 0x35 0x0 0x0 0x0 0x6 0x1 0x1 0x0 0x0 0x0 0x3 old_data:  addr=None
2026-07-24 19:59:33,169 DEBUG   Processing: 0x0 0x35 0x0 0x0 0x0 0x6 0x1 0x1 0x0 0x0 0x0 0x3
2026-07-24 19:59:33,170 DEBUG   decoded PDU function_code(1 sub -1) -> ReadCoilsRequest(dev_id=0, transaction_id=0, address=0, count=3, bits=[], registers=[], status=1) 
2026-07-24 19:59:33,170 DEBUG   Frame advanced, resetting header!!
2026-07-24 19:59:33,170 DEBUG   [PLC] READ  fx=1 addr=0 count=3 -> [1, 0, 0]
2026-07-24 19:59:33,170 DEBUG   send: 0x0 0x35 0x0 0x0 0x0 0x4 0x1 0x1 0x1 0x1
2026-07-24 19:59:33,171 DEBUG   recv: 0x0 0x36 0x0 0x0 0x0 0x6 0x1 0x2 0x0 0x0 0x0 0x3 old_data:  addr=None
2026-07-24 19:59:33,171 DEBUG   Processing: 0x0 0x36 0x0 0x0 0x0 0x6 0x1 0x2 0x0 0x0 0x0 0x3
2026-07-24 19:59:33,171 DEBUG   decoded PDU function_code(2 sub -1) -> ReadDiscreteInputsRequest(dev_id=0, transaction_id=0, address=0, count=3, bits=[], registers=[], status=1) 
2026-07-24 19:59:33,172 DEBUG   Frame advanced, resetting header!!
2026-07-24 19:59:33,172 DEBUG   [PLC] READ  fx=2 addr=0 count=3 -> [0, 0, 0]
2026-07-24 19:59:33,172 DEBUG   send: 0x0 0x36 0x0 0x0 0x0 0x4 0x1 0x2 0x1 0x0
2026-07-24 19:59:33,173 DEBUG   recv: 0x0 0x37 0x0 0x0 0x0 0x6 0x1 0x3 0x0 0x0 0x0 0x3 old_data:  addr=None
2026-07-24 19:59:33,173 DEBUG   Processing: 0x0 0x37 0x0 0x0 0x0 0x6 0x1 0x3 0x0 0x0 0x0 0x3
2026-07-24 19:59:33,173 DEBUG   decoded PDU function_code(3 sub -1) -> ReadHoldingRegistersRequest(dev_id=0, transaction_id=0, address=0, count=3, bits=[], registers=[], status=1) 
2026-07-24 19:59:33,173 DEBUG   Frame advanced, resetting header!!
2026-07-24 19:59:33,174 DEBUG   validate: fc-[3] address-1: count-3
2026-07-24 19:59:33,174 DEBUG   [PLC] READ  fx=3 addr=0 count=3 -> [500, 50, 100]
2026-07-24 19:59:33,174 DEBUG   send: 0x0 0x37 0x0 0x0 0x0 0x9 0x1 0x3 0x6 0x1 0xf4 0x0 0x32 0x0 0x64
2026-07-24 19:59:33,175 DEBUG   recv: 0x0 0x38 0x0 0x0 0x0 0x6 0x1 0x4 0x0 0x0 0x0 0x4 old_data:  addr=None
2026-07-24 19:59:33,175 DEBUG   Processing: 0x0 0x38 0x0 0x0 0x0 0x6 0x1 0x4 0x0 0x0 0x0 0x4
2026-07-24 19:59:33,175 DEBUG   decoded PDU function_code(4 sub -1) -> ReadInputRegistersRequest(dev_id=0, transaction_id=0, address=0, count=4, bits=[], registers=[], status=1) 
2026-07-24 19:59:33,176 DEBUG   Frame advanced, resetting header!!
2026-07-24 19:59:33,176 DEBUG   validate: fc-[4] address-1: count-4
2026-07-24 19:59:33,176 DEBUG   [PLC] READ  fx=4 addr=0 count=4 -> [688, 40, 0, 19]
2026-07-24 19:59:33,176 DEBUG   send: 0x0 0x38 0x0 0x0 0x0 0xb 0x1 0x4 0x8 0x2 0xb0 0x0 0x28 0x0 0x0 0x0 0x13
2026-07-24 19:59:34,190 DEBUG   recv: 0x0 0x39 0x0 0x0 0x0 0x6 0x1 0x1 0x0 0x0 0x0 0x3 old_data:  addr=None
2026-07-24 19:59:34,190 DEBUG   Processing: 0x0 0x39 0x0 0x0 0x0 0x6 0x1 0x1 0x0 0x0 0x0 0x3
2026-07-24 19:59:34,190 DEBUG   decoded PDU function_code(1 sub -1) -> ReadCoilsRequest(dev_id=0, transaction_id=0, address=0, count=3, bits=[], registers=[], status=1) 
2026-07-24 19:59:34,191 DEBUG   Frame advanced, resetting header!!
2026-07-24 19:59:34,191 DEBUG   [PLC] READ  fx=1 addr=0 count=3 -> [1, 0, 0]
2026-07-24 19:59:34,191 DEBUG   send: 0x0 0x39 0x0 0x0 0x0 0x4 0x1 0x1 0x1 0x1
2026-07-24 19:59:34,192 DEBUG   recv: 0x0 0x3a 0x0 0x0 0x0 0x6 0x1 0x2 0x0 0x0 0x0 0x3 old_data:  addr=None
2026-07-24 19:59:34,192 DEBUG   Processing: 0x0 0x3a 0x0 0x0 0x0 0x6 0x1 0x2 0x0 0x0 0x0 0x3
2026-07-24 19:59:34,192 DEBUG   decoded PDU function_code(2 sub -1) -> ReadDiscreteInputsRequest(dev_id=0, transaction_id=0, address=0, count=3, bits=[], registers=[], status=1) 
2026-07-24 19:59:34,192 DEBUG   Frame advanced, resetting header!!
2026-07-24 19:59:34,193 DEBUG   [PLC] READ  fx=2 addr=0 count=3 -> [0, 0, 0]
2026-07-24 19:59:34,193 DEBUG   send: 0x0 0x3a 0x0 0x0 0x0 0x4 0x1 0x2 0x1 0x0
2026-07-24 19:59:34,194 DEBUG   recv: 0x0 0x3b 0x0 0x0 0x0 0x6 0x1 0x3 0x0 0x0 0x0 0x3 old_data:  addr=None
2026-07-24 19:59:34,194 DEBUG   Processing: 0x0 0x3b 0x0 0x0 0x0 0x6 0x1 0x3 0x0 0x0 0x0 0x3
2026-07-24 19:59:34,194 DEBUG   decoded PDU function_code(3 sub -1) -> ReadHoldingRegistersRequest(dev_id=0, transaction_id=0, address=0, count=3, bits=[], registers=[], status=1) 
2026-07-24 19:59:34,194 DEBUG   Frame advanced, resetting header!!
2026-07-24 19:59:34,195 DEBUG   validate: fc-[3] address-1: count-3
2026-07-24 19:59:34,195 DEBUG   [PLC] READ  fx=3 addr=0 count=3 -> [500, 50, 100]
2026-07-24 19:59:34,195 DEBUG   send: 0x0 0x3b 0x0 0x0 0x0 0x9 0x1 0x3 0x6 0x1 0xf4 0x0 0x32 0x0 0x64
2026-07-24 19:59:34,196 DEBUG   recv: 0x0 0x3c 0x0 0x0 0x0 0x6 0x1 0x4 0x0 0x0 0x0 0x4 old_data:  addr=None
2026-07-24 19:59:34,196 DEBUG   Processing: 0x0 0x3c 0x0 0x0 0x0 0x6 0x1 0x4 0x0 0x0 0x0 0x4
2026-07-24 19:59:34,196 DEBUG   decoded PDU function_code(4 sub -1) -> ReadInputRegistersRequest(dev_id=0, transaction_id=0, address=0, count=4, bits=[], registers=[], status=1) 
2026-07-24 19:59:34,196 DEBUG   Frame advanced, resetting header!!
2026-07-24 19:59:34,197 DEBUG   validate: fc-[4] address-1: count-4
2026-07-24 19:59:34,197 DEBUG   [PLC] READ  fx=4 addr=0 count=4 -> [708, 40, 0, 20]
2026-07-24 19:59:34,197 DEBUG   send: 0x0 0x3c 0x0 0x0 0x0 0xb 0x1 0x4 0x8 0x2 0xc4 0x0 0x28 0x0 0x0 0x0 0x14
2026-07-24 19:59:35,213 DEBUG   recv: 0x0 0x3d 0x0 0x0 0x0 0x6 0x1 0x1 0x0 0x0 0x0 0x3 old_data:  addr=None
2026-07-24 19:59:35,213 DEBUG   Processing: 0x0 0x3d 0x0 0x0 0x0 0x6 0x1 0x1 0x0 0x0 0x0 0x3
2026-07-24 19:59:35,213 DEBUG   decoded PDU function_code(1 sub -1) -> ReadCoilsRequest(dev_id=0, transaction_id=0, address=0, count=3, bits=[], registers=[], status=1) 
2026-07-24 19:59:35,213 DEBUG   Frame advanced, resetting header!!
2026-07-24 19:59:35,214 DEBUG   [PLC] READ  fx=1 addr=0 count=3 -> [1, 0, 0]
2026-07-24 19:59:35,214 DEBUG   send: 0x0 0x3d 0x0 0x0 0x0 0x4 0x1 0x1 0x1 0x1
2026-07-24 19:59:35,215 DEBUG   recv: 0x0 0x3e 0x0 0x0 0x0 0x6 0x1 0x2 0x0 0x0 0x0 0x3 old_data:  addr=None
2026-07-24 19:59:35,215 DEBUG   Processing: 0x0 0x3e 0x0 0x0 0x0 0x6 0x1 0x2 0x0 0x0 0x0 0x3
2026-07-24 19:59:35,215 DEBUG   decoded PDU function_code(2 sub -1) -> ReadDiscreteInputsRequest(dev_id=0, transaction_id=0, address=0, count=3, bits=[], registers=[], status=1) 
2026-07-24 19:59:35,215 DEBUG   Frame advanced, resetting header!!
2026-07-24 19:59:35,216 DEBUG   [PLC] READ  fx=2 addr=0 count=3 -> [0, 0, 0]
2026-07-24 19:59:35,216 DEBUG   send: 0x0 0x3e 0x0 0x0 0x0 0x4 0x1 0x2 0x1 0x0
2026-07-24 19:59:35,217 DEBUG   recv: 0x0 0x3f 0x0 0x0 0x0 0x6 0x1 0x3 0x0 0x0 0x0 0x3 old_data:  addr=None
2026-07-24 19:59:35,217 DEBUG   Processing: 0x0 0x3f 0x0 0x0 0x0 0x6 0x1 0x3 0x0 0x0 0x0 0x3
2026-07-24 19:59:35,217 DEBUG   decoded PDU function_code(3 sub -1) -> ReadHoldingRegistersRequest(dev_id=0, transaction_id=0, address=0, count=3, bits=[], registers=[], status=1) 
2026-07-24 19:59:35,217 DEBUG   Frame advanced, resetting header!!
2026-07-24 19:59:35,218 DEBUG   validate: fc-[3] address-1: count-3
2026-07-24 19:59:35,218 DEBUG   [PLC] READ  fx=3 addr=0 count=3 -> [500, 50, 100]
2026-07-24 19:59:35,218 DEBUG   send: 0x0 0x3f 0x0 0x0 0x0 0x9 0x1 0x3 0x6 0x1 0xf4 0x0 0x32 0x0 0x64
2026-07-24 19:59:35,219 DEBUG   recv: 0x0 0x40 0x0 0x0 0x0 0x6 0x1 0x4 0x0 0x0 0x0 0x4 old_data:  addr=None
2026-07-24 19:59:35,219 DEBUG   Processing: 0x0 0x40 0x0 0x0 0x0 0x6 0x1 0x4 0x0 0x0 0x0 0x4
2026-07-24 19:59:35,219 DEBUG   decoded PDU function_code(4 sub -1) -> ReadInputRegistersRequest(dev_id=0, transaction_id=0, address=0, count=4, bits=[], registers=[], status=1) 
2026-07-24 19:59:35,219 DEBUG   Frame advanced, resetting header!!
2026-07-24 19:59:35,220 DEBUG   validate: fc-[4] address-1: count-4
2026-07-24 19:59:35,220 DEBUG   [PLC] READ  fx=4 addr=0 count=4 -> [728, 40, 0, 21]
2026-07-24 19:59:35,220 DEBUG   send: 0x0 0x40 0x0 0x0 0x0 0xb 0x1 0x4 0x8 0x2 0xd8 0x0 0x28 0x0 0x0 0x0 0x15
2026-07-24 19:59:36,234 DEBUG   recv: 0x0 0x41 0x0 0x0 0x0 0x6 0x1 0x1 0x0 0x0 0x0 0x3 old_data:  addr=None
2026-07-24 19:59:36,234 DEBUG   Processing: 0x0 0x41 0x0 0x0 0x0 0x6 0x1 0x1 0x0 0x0 0x0 0x3
2026-07-24 19:59:36,234 DEBUG   decoded PDU function_code(1 sub -1) -> ReadCoilsRequest(dev_id=0, transaction_id=0, address=0, count=3, bits=[], registers=[], status=1) 
2026-07-24 19:59:36,235 DEBUG   Frame advanced, resetting header!!
2026-07-24 19:59:36,235 DEBUG   [PLC] READ  fx=1 addr=0 count=3 -> [1, 0, 0]
2026-07-24 19:59:36,235 DEBUG   send: 0x0 0x41 0x0 0x0 0x0 0x4 0x1 0x1 0x1 0x1
2026-07-24 19:59:36,236 DEBUG   recv: 0x0 0x42 0x0 0x0 0x0 0x6 0x1 0x2 0x0 0x0 0x0 0x3 old_data:  addr=None
2026-07-24 19:59:36,236 DEBUG   Processing: 0x0 0x42 0x0 0x0 0x0 0x6 0x1 0x2 0x0 0x0 0x0 0x3
2026-07-24 19:59:36,236 DEBUG   decoded PDU function_code(2 sub -1) -> ReadDiscreteInputsRequest(dev_id=0, transaction_id=0, address=0, count=3, bits=[], registers=[], status=1) 
2026-07-24 19:59:36,237 DEBUG   Frame advanced, resetting header!!
2026-07-24 19:59:36,237 DEBUG   [PLC] READ  fx=2 addr=0 count=3 -> [0, 0, 0]
2026-07-24 19:59:36,237 DEBUG   send: 0x0 0x42 0x0 0x0 0x0 0x4 0x1 0x2 0x1 0x0
2026-07-24 19:59:36,238 DEBUG   recv: 0x0 0x43 0x0 0x0 0x0 0x6 0x1 0x3 0x0 0x0 0x0 0x3 old_data:  addr=None
2026-07-24 19:59:36,238 DEBUG   Processing: 0x0 0x43 0x0 0x0 0x0 0x6 0x1 0x3 0x0 0x0 0x0 0x3
2026-07-24 19:59:36,238 DEBUG   decoded PDU function_code(3 sub -1) -> ReadHoldingRegistersRequest(dev_id=0, transaction_id=0, address=0, count=3, bits=[], registers=[], status=1) 
2026-07-24 19:59:36,238 DEBUG   Frame advanced, resetting header!!
2026-07-24 19:59:36,239 DEBUG   validate: fc-[3] address-1: count-3
2026-07-24 19:59:36,239 DEBUG   [PLC] READ  fx=3 addr=0 count=3 -> [500, 50, 100]
2026-07-24 19:59:36,239 DEBUG   send: 0x0 0x43 0x0 0x0 0x0 0x9 0x1 0x3 0x6 0x1 0xf4 0x0 0x32 0x0 0x64
2026-07-24 19:59:36,240 DEBUG   recv: 0x0 0x44 0x0 0x0 0x0 0x6 0x1 0x4 0x0 0x0 0x0 0x4 old_data:  addr=None
2026-07-24 19:59:36,240 DEBUG   Processing: 0x0 0x44 0x0 0x0 0x0 0x6 0x1 0x4 0x0 0x0 0x0 0x4
2026-07-24 19:59:36,240 DEBUG   decoded PDU function_code(4 sub -1) -> ReadInputRegistersRequest(dev_id=0, transaction_id=0, address=0, count=4, bits=[], registers=[], status=1) 
2026-07-24 19:59:36,240 DEBUG   Frame advanced, resetting header!!
2026-07-24 19:59:36,241 DEBUG   validate: fc-[4] address-1: count-4
2026-07-24 19:59:36,241 DEBUG   [PLC] READ  fx=4 addr=0 count=4 -> [752, 40, 0, 22]
2026-07-24 19:59:36,241 DEBUG   send: 0x0 0x44 0x0 0x0 0x0 0xb 0x1 0x4 0x8 0x2 0xf0 0x0 0x28 0x0 0x0 0x0 0x16
2026-07-24 19:59:37,255 DEBUG   recv: 0x0 0x45 0x0 0x0 0x0 0x6 0x1 0x1 0x0 0x0 0x0 0x3 old_data:  addr=None
2026-07-24 19:59:37,255 DEBUG   Processing: 0x0 0x45 0x0 0x0 0x0 0x6 0x1 0x1 0x0 0x0 0x0 0x3
2026-07-24 19:59:37,256 DEBUG   decoded PDU function_code(1 sub -1) -> ReadCoilsRequest(dev_id=0, transaction_id=0, address=0, count=3, bits=[], registers=[], status=1) 
2026-07-24 19:59:37,256 DEBUG   Frame advanced, resetting header!!
2026-07-24 19:59:37,256 DEBUG   [PLC] READ  fx=1 addr=0 count=3 -> [1, 0, 0]
2026-07-24 19:59:37,256 DEBUG   send: 0x0 0x45 0x0 0x0 0x0 0x4 0x1 0x1 0x1 0x1
2026-07-24 19:59:37,257 DEBUG   recv: 0x0 0x46 0x0 0x0 0x0 0x6 0x1 0x2 0x0 0x0 0x0 0x3 old_data:  addr=None
2026-07-24 19:59:37,257 DEBUG   Processing: 0x0 0x46 0x0 0x0 0x0 0x6 0x1 0x2 0x0 0x0 0x0 0x3
2026-07-24 19:59:37,258 DEBUG   decoded PDU function_code(2 sub -1) -> ReadDiscreteInputsRequest(dev_id=0, transaction_id=0, address=0, count=3, bits=[], registers=[], status=1) 
2026-07-24 19:59:37,258 DEBUG   Frame advanced, resetting header!!
2026-07-24 19:59:37,258 DEBUG   [PLC] READ  fx=2 addr=0 count=3 -> [0, 0, 0]
2026-07-24 19:59:37,258 DEBUG   send: 0x0 0x46 0x0 0x0 0x0 0x4 0x1 0x2 0x1 0x0
2026-07-24 19:59:37,259 DEBUG   recv: 0x0 0x47 0x0 0x0 0x0 0x6 0x1 0x3 0x0 0x0 0x0 0x3 old_data:  addr=None
2026-07-24 19:59:37,259 DEBUG   Processing: 0x0 0x47 0x0 0x0 0x0 0x6 0x1 0x3 0x0 0x0 0x0 0x3
2026-07-24 19:59:37,260 DEBUG   decoded PDU function_code(3 sub -1) -> ReadHoldingRegistersRequest(dev_id=0, transaction_id=0, address=0, count=3, bits=[], registers=[], status=1) 
2026-07-24 19:59:37,260 DEBUG   Frame advanced, resetting header!!
2026-07-24 19:59:37,260 DEBUG   validate: fc-[3] address-1: count-3
2026-07-24 19:59:37,260 DEBUG   [PLC] READ  fx=3 addr=0 count=3 -> [500, 50, 100]
2026-07-24 19:59:37,260 DEBUG   send: 0x0 0x47 0x0 0x0 0x0 0x9 0x1 0x3 0x6 0x1 0xf4 0x0 0x32 0x0 0x64
2026-07-24 19:59:37,261 DEBUG   recv: 0x0 0x48 0x0 0x0 0x0 0x6 0x1 0x4 0x0 0x0 0x0 0x4 old_data:  addr=None
2026-07-24 19:59:37,261 DEBUG   Processing: 0x0 0x48 0x0 0x0 0x0 0x6 0x1 0x4 0x0 0x0 0x0 0x4
2026-07-24 19:59:37,262 DEBUG   decoded PDU function_code(4 sub -1) -> ReadInputRegistersRequest(dev_id=0, transaction_id=0, address=0, count=4, bits=[], registers=[], status=1) 
2026-07-24 19:59:37,262 DEBUG   Frame advanced, resetting header!!
2026-07-24 19:59:37,262 DEBUG   validate: fc-[4] address-1: count-4
2026-07-24 19:59:37,262 DEBUG   [PLC] READ  fx=4 addr=0 count=4 -> [772, 40, 0, 23]
2026-07-24 19:59:37,262 DEBUG   send: 0x0 0x48 0x0 0x0 0x0 0xb 0x1 0x4 0x8 0x3 0x4 0x0 0x28 0x0 0x0 0x0 0x17
2026-07-24 19:59:38,277 DEBUG   recv: 0x0 0x49 0x0 0x0 0x0 0x6 0x1 0x1 0x0 0x0 0x0 0x3 old_data:  addr=None
2026-07-24 19:59:38,277 DEBUG   Processing: 0x0 0x49 0x0 0x0 0x0 0x6 0x1 0x1 0x0 0x0 0x0 0x3
2026-07-24 19:59:38,278 DEBUG   decoded PDU function_code(1 sub -1) -> ReadCoilsRequest(dev_id=0, transaction_id=0, address=0, count=3, bits=[], registers=[], status=1) 
2026-07-24 19:59:38,278 DEBUG   Frame advanced, resetting header!!
2026-07-24 19:59:38,278 DEBUG   [PLC] READ  fx=1 addr=0 count=3 -> [1, 0, 0]
2026-07-24 19:59:38,278 DEBUG   send: 0x0 0x49 0x0 0x0 0x0 0x4 0x1 0x1 0x1 0x1
2026-07-24 19:59:38,279 DEBUG   recv: 0x0 0x4a 0x0 0x0 0x0 0x6 0x1 0x2 0x0 0x0 0x0 0x3 old_data:  addr=None
2026-07-24 19:59:38,279 DEBUG   Processing: 0x0 0x4a 0x0 0x0 0x0 0x6 0x1 0x2 0x0 0x0 0x0 0x3
2026-07-24 19:59:38,279 DEBUG   decoded PDU function_code(2 sub -1) -> ReadDiscreteInputsRequest(dev_id=0, transaction_id=0, address=0, count=3, bits=[], registers=[], status=1) 
2026-07-24 19:59:38,280 DEBUG   Frame advanced, resetting header!!
2026-07-24 19:59:38,280 DEBUG   [PLC] READ  fx=2 addr=0 count=3 -> [0, 0, 0]
2026-07-24 19:59:38,280 DEBUG   send: 0x0 0x4a 0x0 0x0 0x0 0x4 0x1 0x2 0x1 0x0
2026-07-24 19:59:38,281 DEBUG   recv: 0x0 0x4b 0x0 0x0 0x0 0x6 0x1 0x3 0x0 0x0 0x0 0x3 old_data:  addr=None
2026-07-24 19:59:38,281 DEBUG   Processing: 0x0 0x4b 0x0 0x0 0x0 0x6 0x1 0x3 0x0 0x0 0x0 0x3
2026-07-24 19:59:38,281 DEBUG   decoded PDU function_code(3 sub -1) -> ReadHoldingRegistersRequest(dev_id=0, transaction_id=0, address=0, count=3, bits=[], registers=[], status=1) 
2026-07-24 19:59:38,281 DEBUG   Frame advanced, resetting header!!
2026-07-24 19:59:38,282 DEBUG   validate: fc-[3] address-1: count-3
2026-07-24 19:59:38,282 DEBUG   [PLC] READ  fx=3 addr=0 count=3 -> [500, 50, 100]
2026-07-24 19:59:38,282 DEBUG   send: 0x0 0x4b 0x0 0x0 0x0 0x9 0x1 0x3 0x6 0x1 0xf4 0x0 0x32 0x0 0x64
2026-07-24 19:59:38,283 DEBUG   recv: 0x0 0x4c 0x0 0x0 0x0 0x6 0x1 0x4 0x0 0x0 0x0 0x4 old_data:  addr=None
2026-07-24 19:59:38,283 DEBUG   Processing: 0x0 0x4c 0x0 0x0 0x0 0x6 0x1 0x4 0x0 0x0 0x0 0x4
2026-07-24 19:59:38,283 DEBUG   decoded PDU function_code(4 sub -1) -> ReadInputRegistersRequest(dev_id=0, transaction_id=0, address=0, count=4, bits=[], registers=[], status=1) 
2026-07-24 19:59:38,284 DEBUG   Frame advanced, resetting header!!
2026-07-24 19:59:38,284 DEBUG   validate: fc-[4] address-1: count-4
2026-07-24 19:59:38,284 DEBUG   [PLC] READ  fx=4 addr=0 count=4 -> [792, 40, 0, 24]
2026-07-24 19:59:38,284 DEBUG   send: 0x0 0x4c 0x0 0x0 0x0 0xb 0x1 0x4 0x8 0x3 0x18 0x0 0x28 0x0 0x0 0x0 0x18
2026-07-24 19:59:39,299 DEBUG   recv: 0x0 0x4d 0x0 0x0 0x0 0x6 0x1 0x1 0x0 0x0 0x0 0x3 old_data:  addr=None
2026-07-24 19:59:39,299 DEBUG   Processing: 0x0 0x4d 0x0 0x0 0x0 0x6 0x1 0x1 0x0 0x0 0x0 0x3
2026-07-24 19:59:39,299 DEBUG   decoded PDU function_code(1 sub -1) -> ReadCoilsRequest(dev_id=0, transaction_id=0, address=0, count=3, bits=[], registers=[], status=1) 
2026-07-24 19:59:39,299 DEBUG   Frame advanced, resetting header!!
2026-07-24 19:59:39,300 DEBUG   [PLC] READ  fx=1 addr=0 count=3 -> [1, 0, 0]
2026-07-24 19:59:39,300 DEBUG   send: 0x0 0x4d 0x0 0x0 0x0 0x4 0x1 0x1 0x1 0x1
2026-07-24 19:59:39,301 DEBUG   recv: 0x0 0x4e 0x0 0x0 0x0 0x6 0x1 0x2 0x0 0x0 0x0 0x3 old_data:  addr=None
2026-07-24 19:59:39,301 DEBUG   Processing: 0x0 0x4e 0x0 0x0 0x0 0x6 0x1 0x2 0x0 0x0 0x0 0x3
2026-07-24 19:59:39,301 DEBUG   decoded PDU function_code(2 sub -1) -> ReadDiscreteInputsRequest(dev_id=0, transaction_id=0, address=0, count=3, bits=[], registers=[], status=1) 
2026-07-24 19:59:39,301 DEBUG   Frame advanced, resetting header!!
2026-07-24 19:59:39,302 DEBUG   [PLC] READ  fx=2 addr=0 count=3 -> [0, 0, 0]
2026-07-24 19:59:39,302 DEBUG   send: 0x0 0x4e 0x0 0x0 0x0 0x4 0x1 0x2 0x1 0x0
2026-07-24 19:59:39,303 DEBUG   recv: 0x0 0x4f 0x0 0x0 0x0 0x6 0x1 0x3 0x0 0x0 0x0 0x3 old_data:  addr=None
2026-07-24 19:59:39,303 DEBUG   Processing: 0x0 0x4f 0x0 0x0 0x0 0x6 0x1 0x3 0x0 0x0 0x0 0x3
2026-07-24 19:59:39,303 DEBUG   decoded PDU function_code(3 sub -1) -> ReadHoldingRegistersRequest(dev_id=0, transaction_id=0, address=0, count=3, bits=[], registers=[], status=1) 
2026-07-24 19:59:39,303 DEBUG   Frame advanced, resetting header!!
2026-07-24 19:59:39,304 DEBUG   validate: fc-[3] address-1: count-3
2026-07-24 19:59:39,304 DEBUG   [PLC] READ  fx=3 addr=0 count=3 -> [500, 50, 100]
2026-07-24 19:59:39,304 DEBUG   send: 0x0 0x4f 0x0 0x0 0x0 0x9 0x1 0x3 0x6 0x1 0xf4 0x0 0x32 0x0 0x64
2026-07-24 19:59:39,305 DEBUG   recv: 0x0 0x50 0x0 0x0 0x0 0x6 0x1 0x4 0x0 0x0 0x0 0x4 old_data:  addr=None
2026-07-24 19:59:39,305 DEBUG   Processing: 0x0 0x50 0x0 0x0 0x0 0x6 0x1 0x4 0x0 0x0 0x0 0x4
2026-07-24 19:59:39,305 DEBUG   decoded PDU function_code(4 sub -1) -> ReadInputRegistersRequest(dev_id=0, transaction_id=0, address=0, count=4, bits=[], registers=[], status=1) 
2026-07-24 19:59:39,305 DEBUG   Frame advanced, resetting header!!
2026-07-24 19:59:39,306 DEBUG   validate: fc-[4] address-1: count-4
2026-07-24 19:59:39,306 DEBUG   [PLC] READ  fx=4 addr=0 count=4 -> [812, 40, 0, 25]
2026-07-24 19:59:39,306 DEBUG   send: 0x0 0x50 0x0 0x0 0x0 0xb 0x1 0x4 0x8 0x3 0x2c 0x0 0x28 0x0 0x0 0x0 0x19
2026-07-24 19:59:40,322 DEBUG   recv: 0x0 0x51 0x0 0x0 0x0 0x6 0x1 0x1 0x0 0x0 0x0 0x3 old_data:  addr=None
2026-07-24 19:59:40,322 DEBUG   Processing: 0x0 0x51 0x0 0x0 0x0 0x6 0x1 0x1 0x0 0x0 0x0 0x3
2026-07-24 19:59:40,323 DEBUG   decoded PDU function_code(1 sub -1) -> ReadCoilsRequest(dev_id=0, transaction_id=0, address=0, count=3, bits=[], registers=[], status=1) 
2026-07-24 19:59:40,323 DEBUG   Frame advanced, resetting header!!
2026-07-24 19:59:40,323 DEBUG   [PLC] READ  fx=1 addr=0 count=3 -> [1, 0, 0]
2026-07-24 19:59:40,323 DEBUG   send: 0x0 0x51 0x0 0x0 0x0 0x4 0x1 0x1 0x1 0x1
2026-07-24 19:59:40,324 DEBUG   recv: 0x0 0x52 0x0 0x0 0x0 0x6 0x1 0x2 0x0 0x0 0x0 0x3 old_data:  addr=None
2026-07-24 19:59:40,324 DEBUG   Processing: 0x0 0x52 0x0 0x0 0x0 0x6 0x1 0x2 0x0 0x0 0x0 0x3
2026-07-24 19:59:40,325 DEBUG   decoded PDU function_code(2 sub -1) -> ReadDiscreteInputsRequest(dev_id=0, transaction_id=0, address=0, count=3, bits=[], registers=[], status=1) 
2026-07-24 19:59:40,325 DEBUG   Frame advanced, resetting header!!
2026-07-24 19:59:40,325 DEBUG   [PLC] READ  fx=2 addr=0 count=3 -> [0, 0, 0]
2026-07-24 19:59:40,325 DEBUG   send: 0x0 0x52 0x0 0x0 0x0 0x4 0x1 0x2 0x1 0x0
2026-07-24 19:59:40,326 DEBUG   recv: 0x0 0x53 0x0 0x0 0x0 0x6 0x1 0x3 0x0 0x0 0x0 0x3 old_data:  addr=None
2026-07-24 19:59:40,326 DEBUG   Processing: 0x0 0x53 0x0 0x0 0x0 0x6 0x1 0x3 0x0 0x0 0x0 0x3
2026-07-24 19:59:40,327 DEBUG   decoded PDU function_code(3 sub -1) -> ReadHoldingRegistersRequest(dev_id=0, transaction_id=0, address=0, count=3, bits=[], registers=[], status=1) 
2026-07-24 19:59:40,327 DEBUG   Frame advanced, resetting header!!
2026-07-24 19:59:40,327 DEBUG   validate: fc-[3] address-1: count-3
2026-07-24 19:59:40,327 DEBUG   [PLC] READ  fx=3 addr=0 count=3 -> [500, 50, 100]
2026-07-24 19:59:40,327 DEBUG   send: 0x0 0x53 0x0 0x0 0x0 0x9 0x1 0x3 0x6 0x1 0xf4 0x0 0x32 0x0 0x64
2026-07-24 19:59:40,328 DEBUG   recv: 0x0 0x54 0x0 0x0 0x0 0x6 0x1 0x4 0x0 0x0 0x0 0x4 old_data:  addr=None
2026-07-24 19:59:40,328 DEBUG   Processing: 0x0 0x54 0x0 0x0 0x0 0x6 0x1 0x4 0x0 0x0 0x0 0x4
2026-07-24 19:59:40,329 DEBUG   decoded PDU function_code(4 sub -1) -> ReadInputRegistersRequest(dev_id=0, transaction_id=0, address=0, count=4, bits=[], registers=[], status=1) 
2026-07-24 19:59:40,329 DEBUG   Frame advanced, resetting header!!
2026-07-24 19:59:40,329 DEBUG   validate: fc-[4] address-1: count-4
2026-07-24 19:59:40,329 DEBUG   [PLC] READ  fx=4 addr=0 count=4 -> [832, 40, 0, 26]
2026-07-24 19:59:40,329 DEBUG   send: 0x0 0x54 0x0 0x0 0x0 0xb 0x1 0x4 0x8 0x3 0x40 0x0 0x28 0x0 0x0 0x0 0x1a
2026-07-24 19:59:41,344 DEBUG   recv: 0x0 0x55 0x0 0x0 0x0 0x6 0x1 0x1 0x0 0x0 0x0 0x3 old_data:  addr=None
2026-07-24 19:59:41,344 DEBUG   Processing: 0x0 0x55 0x0 0x0 0x0 0x6 0x1 0x1 0x0 0x0 0x0 0x3
2026-07-24 19:59:41,345 DEBUG   decoded PDU function_code(1 sub -1) -> ReadCoilsRequest(dev_id=0, transaction_id=0, address=0, count=3, bits=[], registers=[], status=1) 
2026-07-24 19:59:41,345 DEBUG   Frame advanced, resetting header!!
2026-07-24 19:59:41,345 DEBUG   [PLC] READ  fx=1 addr=0 count=3 -> [1, 0, 0]
2026-07-24 19:59:41,345 DEBUG   send: 0x0 0x55 0x0 0x0 0x0 0x4 0x1 0x1 0x1 0x1
2026-07-24 19:59:41,346 DEBUG   recv: 0x0 0x56 0x0 0x0 0x0 0x6 0x1 0x2 0x0 0x0 0x0 0x3 old_data:  addr=None
2026-07-24 19:59:41,346 DEBUG   Processing: 0x0 0x56 0x0 0x0 0x0 0x6 0x1 0x2 0x0 0x0 0x0 0x3
2026-07-24 19:59:41,346 DEBUG   decoded PDU function_code(2 sub -1) -> ReadDiscreteInputsRequest(dev_id=0, transaction_id=0, address=0, count=3, bits=[], registers=[], status=1) 
2026-07-24 19:59:41,347 DEBUG   Frame advanced, resetting header!!
2026-07-24 19:59:41,347 DEBUG   [PLC] READ  fx=2 addr=0 count=3 -> [0, 0, 0]
2026-07-24 19:59:41,347 DEBUG   send: 0x0 0x56 0x0 0x0 0x0 0x4 0x1 0x2 0x1 0x0
2026-07-24 19:59:41,348 DEBUG   recv: 0x0 0x57 0x0 0x0 0x0 0x6 0x1 0x3 0x0 0x0 0x0 0x3 old_data:  addr=None
2026-07-24 19:59:41,348 DEBUG   Processing: 0x0 0x57 0x0 0x0 0x0 0x6 0x1 0x3 0x0 0x0 0x0 0x3
2026-07-24 19:59:41,348 DEBUG   decoded PDU function_code(3 sub -1) -> ReadHoldingRegistersRequest(dev_id=0, transaction_id=0, address=0, count=3, bits=[], registers=[], status=1) 
2026-07-24 19:59:41,348 DEBUG   Frame advanced, resetting header!!
2026-07-24 19:59:41,349 DEBUG   validate: fc-[3] address-1: count-3
2026-07-24 19:59:41,349 DEBUG   [PLC] READ  fx=3 addr=0 count=3 -> [500, 50, 100]
2026-07-24 19:59:41,349 DEBUG   send: 0x0 0x57 0x0 0x0 0x0 0x9 0x1 0x3 0x6 0x1 0xf4 0x0 0x32 0x0 0x64
2026-07-24 19:59:41,350 DEBUG   recv: 0x0 0x58 0x0 0x0 0x0 0x6 0x1 0x4 0x0 0x0 0x0 0x4 old_data:  addr=None
2026-07-24 19:59:41,350 DEBUG   Processing: 0x0 0x58 0x0 0x0 0x0 0x6 0x1 0x4 0x0 0x0 0x0 0x4
2026-07-24 19:59:41,350 DEBUG   decoded PDU function_code(4 sub -1) -> ReadInputRegistersRequest(dev_id=0, transaction_id=0, address=0, count=4, bits=[], registers=[], status=1) 
2026-07-24 19:59:41,350 DEBUG   Frame advanced, resetting header!!
2026-07-24 19:59:41,351 DEBUG   validate: fc-[4] address-1: count-4
2026-07-24 19:59:41,351 DEBUG   [PLC] READ  fx=4 addr=0 count=4 -> [852, 40, 0, 27]
2026-07-24 19:59:41,351 DEBUG   send: 0x0 0x58 0x0 0x0 0x0 0xb 0x1 0x4 0x8 0x3 0x54 0x0 0x28 0x0 0x0 0x0 0x1b
2026-07-24 19:59:42,366 DEBUG   recv: 0x0 0x59 0x0 0x0 0x0 0x6 0x1 0x1 0x0 0x0 0x0 0x3 old_data:  addr=None
2026-07-24 19:59:42,367 DEBUG   Processing: 0x0 0x59 0x0 0x0 0x0 0x6 0x1 0x1 0x0 0x0 0x0 0x3
2026-07-24 19:59:42,367 DEBUG   decoded PDU function_code(1 sub -1) -> ReadCoilsRequest(dev_id=0, transaction_id=0, address=0, count=3, bits=[], registers=[], status=1) 
2026-07-24 19:59:42,367 DEBUG   Frame advanced, resetting header!!
2026-07-24 19:59:42,367 DEBUG   [PLC] READ  fx=1 addr=0 count=3 -> [1, 0, 0]
2026-07-24 19:59:42,368 DEBUG   send: 0x0 0x59 0x0 0x0 0x0 0x4 0x1 0x1 0x1 0x1
2026-07-24 19:59:42,368 DEBUG   recv: 0x0 0x5a 0x0 0x0 0x0 0x6 0x1 0x2 0x0 0x0 0x0 0x3 old_data:  addr=None
2026-07-24 19:59:42,369 DEBUG   Processing: 0x0 0x5a 0x0 0x0 0x0 0x6 0x1 0x2 0x0 0x0 0x0 0x3
2026-07-24 19:59:42,369 DEBUG   decoded PDU function_code(2 sub -1) -> ReadDiscreteInputsRequest(dev_id=0, transaction_id=0, address=0, count=3, bits=[], registers=[], status=1) 
2026-07-24 19:59:42,369 DEBUG   Frame advanced, resetting header!!
2026-07-24 19:59:42,369 DEBUG   [PLC] READ  fx=2 addr=0 count=3 -> [0, 0, 0]
2026-07-24 19:59:42,370 DEBUG   send: 0x0 0x5a 0x0 0x0 0x0 0x4 0x1 0x2 0x1 0x0
2026-07-24 19:59:42,370 DEBUG   recv: 0x0 0x5b 0x0 0x0 0x0 0x6 0x1 0x3 0x0 0x0 0x0 0x3 old_data:  addr=None
2026-07-24 19:59:42,371 DEBUG   Processing: 0x0 0x5b 0x0 0x0 0x0 0x6 0x1 0x3 0x0 0x0 0x0 0x3
2026-07-24 19:59:42,371 DEBUG   decoded PDU function_code(3 sub -1) -> ReadHoldingRegistersRequest(dev_id=0, transaction_id=0, address=0, count=3, bits=[], registers=[], status=1) 
2026-07-24 19:59:42,371 DEBUG   Frame advanced, resetting header!!
2026-07-24 19:59:42,371 DEBUG   validate: fc-[3] address-1: count-3
2026-07-24 19:59:42,371 DEBUG   [PLC] READ  fx=3 addr=0 count=3 -> [500, 50, 100]
2026-07-24 19:59:42,372 DEBUG   send: 0x0 0x5b 0x0 0x0 0x0 0x9 0x1 0x3 0x6 0x1 0xf4 0x0 0x32 0x0 0x64
2026-07-24 19:59:42,372 DEBUG   recv: 0x0 0x5c 0x0 0x0 0x0 0x6 0x1 0x4 0x0 0x0 0x0 0x4 old_data:  addr=None
2026-07-24 19:59:42,373 DEBUG   Processing: 0x0 0x5c 0x0 0x0 0x0 0x6 0x1 0x4 0x0 0x0 0x0 0x4
2026-07-24 19:59:42,373 DEBUG   decoded PDU function_code(4 sub -1) -> ReadInputRegistersRequest(dev_id=0, transaction_id=0, address=0, count=4, bits=[], registers=[], status=1) 
2026-07-24 19:59:42,373 DEBUG   Frame advanced, resetting header!!
2026-07-24 19:59:42,373 DEBUG   validate: fc-[4] address-1: count-4
2026-07-24 19:59:42,373 DEBUG   [PLC] READ  fx=4 addr=0 count=4 -> [872, 40, 0, 28]
2026-07-24 19:59:42,374 DEBUG   send: 0x0 0x5c 0x0 0x0 0x0 0xb 0x1 0x4 0x8 0x3 0x68 0x0 0x28 0x0 0x0 0x0 0x1c
2026-07-24 19:59:43,389 DEBUG   recv: 0x0 0x5d 0x0 0x0 0x0 0x6 0x1 0x1 0x0 0x0 0x0 0x3 old_data:  addr=None
2026-07-24 19:59:43,389 DEBUG   Processing: 0x0 0x5d 0x0 0x0 0x0 0x6 0x1 0x1 0x0 0x0 0x0 0x3
2026-07-24 19:59:43,389 DEBUG   decoded PDU function_code(1 sub -1) -> ReadCoilsRequest(dev_id=0, transaction_id=0, address=0, count=3, bits=[], registers=[], status=1) 
2026-07-24 19:59:43,389 DEBUG   Frame advanced, resetting header!!
2026-07-24 19:59:43,390 DEBUG   [PLC] READ  fx=1 addr=0 count=3 -> [1, 0, 0]
2026-07-24 19:59:43,390 DEBUG   send: 0x0 0x5d 0x0 0x0 0x0 0x4 0x1 0x1 0x1 0x1
2026-07-24 19:59:43,391 DEBUG   recv: 0x0 0x5e 0x0 0x0 0x0 0x6 0x1 0x2 0x0 0x0 0x0 0x3 old_data:  addr=None
2026-07-24 19:59:43,391 DEBUG   Processing: 0x0 0x5e 0x0 0x0 0x0 0x6 0x1 0x2 0x0 0x0 0x0 0x3
2026-07-24 19:59:43,391 DEBUG   decoded PDU function_code(2 sub -1) -> ReadDiscreteInputsRequest(dev_id=0, transaction_id=0, address=0, count=3, bits=[], registers=[], status=1) 
2026-07-24 19:59:43,391 DEBUG   Frame advanced, resetting header!!
2026-07-24 19:59:43,392 DEBUG   [PLC] READ  fx=2 addr=0 count=3 -> [0, 0, 0]
2026-07-24 19:59:43,392 DEBUG   send: 0x0 0x5e 0x0 0x0 0x0 0x4 0x1 0x2 0x1 0x0
2026-07-24 19:59:43,392 DEBUG   recv: 0x0 0x5f 0x0 0x0 0x0 0x6 0x1 0x3 0x0 0x0 0x0 0x3 old_data:  addr=None
2026-07-24 19:59:43,393 DEBUG   Processing: 0x0 0x5f 0x0 0x0 0x0 0x6 0x1 0x3 0x0 0x0 0x0 0x3
2026-07-24 19:59:43,393 DEBUG   decoded PDU function_code(3 sub -1) -> ReadHoldingRegistersRequest(dev_id=0, transaction_id=0, address=0, count=3, bits=[], registers=[], status=1) 
2026-07-24 19:59:43,393 DEBUG   Frame advanced, resetting header!!
2026-07-24 19:59:43,393 DEBUG   validate: fc-[3] address-1: count-3
2026-07-24 19:59:43,394 DEBUG   [PLC] READ  fx=3 addr=0 count=3 -> [500, 50, 100]
2026-07-24 19:59:43,394 DEBUG   send: 0x0 0x5f 0x0 0x0 0x0 0x9 0x1 0x3 0x6 0x1 0xf4 0x0 0x32 0x0 0x64
2026-07-24 19:59:43,394 DEBUG   recv: 0x0 0x60 0x0 0x0 0x0 0x6 0x1 0x4 0x0 0x0 0x0 0x4 old_data:  addr=None
2026-07-24 19:59:43,395 DEBUG   Processing: 0x0 0x60 0x0 0x0 0x0 0x6 0x1 0x4 0x0 0x0 0x0 0x4
2026-07-24 19:59:43,395 DEBUG   decoded PDU function_code(4 sub -1) -> ReadInputRegistersRequest(dev_id=0, transaction_id=0, address=0, count=4, bits=[], registers=[], status=1) 
2026-07-24 19:59:43,395 DEBUG   Frame advanced, resetting header!!
2026-07-24 19:59:43,395 DEBUG   validate: fc-[4] address-1: count-4
2026-07-24 19:59:43,396 DEBUG   [PLC] READ  fx=4 addr=0 count=4 -> [892, 40, 0, 29]
2026-07-24 19:59:43,396 DEBUG   send: 0x0 0x60 0x0 0x0 0x0 0xb 0x1 0x4 0x8 0x3 0x7c 0x0 0x28 0x0 0x0 0x0 0x1d
2026-07-24 19:59:44,411 DEBUG   recv: 0x0 0x61 0x0 0x0 0x0 0x6 0x1 0x1 0x0 0x0 0x0 0x3 old_data:  addr=None
2026-07-24 19:59:44,411 DEBUG   Processing: 0x0 0x61 0x0 0x0 0x0 0x6 0x1 0x1 0x0 0x0 0x0 0x3
2026-07-24 19:59:44,411 DEBUG   decoded PDU function_code(1 sub -1) -> ReadCoilsRequest(dev_id=0, transaction_id=0, address=0, count=3, bits=[], registers=[], status=1) 
2026-07-24 19:59:44,412 DEBUG   Frame advanced, resetting header!!
2026-07-24 19:59:44,412 DEBUG   [PLC] READ  fx=1 addr=0 count=3 -> [1, 0, 0]
2026-07-24 19:59:44,412 DEBUG   send: 0x0 0x61 0x0 0x0 0x0 0x4 0x1 0x1 0x1 0x1
2026-07-24 19:59:44,413 DEBUG   recv: 0x0 0x62 0x0 0x0 0x0 0x6 0x1 0x2 0x0 0x0 0x0 0x3 old_data:  addr=None
2026-07-24 19:59:44,413 DEBUG   Processing: 0x0 0x62 0x0 0x0 0x0 0x6 0x1 0x2 0x0 0x0 0x0 0x3
2026-07-24 19:59:44,413 DEBUG   decoded PDU function_code(2 sub -1) -> ReadDiscreteInputsRequest(dev_id=0, transaction_id=0, address=0, count=3, bits=[], registers=[], status=1) 
2026-07-24 19:59:44,413 DEBUG   Frame advanced, resetting header!!
2026-07-24 19:59:44,414 DEBUG   [PLC] READ  fx=2 addr=0 count=3 -> [1, 0, 0]
2026-07-24 19:59:44,414 DEBUG   send: 0x0 0x62 0x0 0x0 0x0 0x4 0x1 0x2 0x1 0x1
2026-07-24 19:59:44,415 DEBUG   recv: 0x0 0x63 0x0 0x0 0x0 0x6 0x1 0x3 0x0 0x0 0x0 0x3 old_data:  addr=None
2026-07-24 19:59:44,415 DEBUG   Processing: 0x0 0x63 0x0 0x0 0x0 0x6 0x1 0x3 0x0 0x0 0x0 0x3
2026-07-24 19:59:44,415 DEBUG   decoded PDU function_code(3 sub -1) -> ReadHoldingRegistersRequest(dev_id=0, transaction_id=0, address=0, count=3, bits=[], registers=[], status=1) 
2026-07-24 19:59:44,415 DEBUG   Frame advanced, resetting header!!
2026-07-24 19:59:44,416 DEBUG   validate: fc-[3] address-1: count-3
2026-07-24 19:59:44,416 DEBUG   [PLC] READ  fx=3 addr=0 count=3 -> [500, 50, 100]
2026-07-24 19:59:44,416 DEBUG   send: 0x0 0x63 0x0 0x0 0x0 0x9 0x1 0x3 0x6 0x1 0xf4 0x0 0x32 0x0 0x64
2026-07-24 19:59:44,417 DEBUG   recv: 0x0 0x64 0x0 0x0 0x0 0x6 0x1 0x4 0x0 0x0 0x0 0x4 old_data:  addr=None
2026-07-24 19:59:44,417 DEBUG   Processing: 0x0 0x64 0x0 0x0 0x0 0x6 0x1 0x4 0x0 0x0 0x0 0x4
2026-07-24 19:59:44,417 DEBUG   decoded PDU function_code(4 sub -1) -> ReadInputRegistersRequest(dev_id=0, transaction_id=0, address=0, count=4, bits=[], registers=[], status=1) 
2026-07-24 19:59:44,417 DEBUG   Frame advanced, resetting header!!
2026-07-24 19:59:44,418 DEBUG   validate: fc-[4] address-1: count-4
2026-07-24 19:59:44,418 DEBUG   [PLC] READ  fx=4 addr=0 count=4 -> [912, 40, 1, 30]
2026-07-24 19:59:44,418 DEBUG   send: 0x0 0x64 0x0 0x0 0x0 0xb 0x1 0x4 0x8 0x3 0x90 0x0 0x28 0x0 0x1 0x0 0x1e
2026-07-24 19:59:44,927 DEBUG   recv: 0x0 0x65 0x0 0x0 0x0 0x6 0x1 0x5 0x0 0x0 0x0 0x0 old_data:  addr=None
2026-07-24 19:59:44,928 DEBUG   Processing: 0x0 0x65 0x0 0x0 0x0 0x6 0x1 0x5 0x0 0x0 0x0 0x0
2026-07-24 19:59:44,928 DEBUG   decoded PDU function_code(5 sub -1) -> WriteSingleCoilRequest(dev_id=0, transaction_id=0, address=0, count=0, bits=[False], registers=[], status=1) 
2026-07-24 19:59:44,928 DEBUG   Frame advanced, resetting header!!
2026-07-24 19:59:44,929 DEBUG   validate: fc-[5] address-1: count-1
2026-07-24 19:59:44,929 INFO    [PLC] WRITE fx=5 addr=0 values=[False]
2026-07-24 19:59:44,929 DEBUG   setValues[5] address-1: count-1
2026-07-24 19:59:44,929 DEBUG   [PLC] READ  fx=5 addr=0 count=1 -> [0]
2026-07-24 19:59:44,930 DEBUG   send: 0x0 0x65 0x0 0x0 0x0 0x6 0x1 0x5 0x0 0x0 0x0 0x0
2026-07-24 19:59:45,438 DEBUG   recv: 0x0 0x66 0x0 0x0 0x0 0x6 0x1 0x1 0x0 0x0 0x0 0x3 old_data:  addr=None
2026-07-24 19:59:45,438 DEBUG   Processing: 0x0 0x66 0x0 0x0 0x0 0x6 0x1 0x1 0x0 0x0 0x0 0x3
2026-07-24 19:59:45,439 DEBUG   decoded PDU function_code(1 sub -1) -> ReadCoilsRequest(dev_id=0, transaction_id=0, address=0, count=3, bits=[], registers=[], status=1) 
2026-07-24 19:59:45,439 DEBUG   Frame advanced, resetting header!!
2026-07-24 19:59:45,439 DEBUG   [PLC] READ  fx=1 addr=0 count=3 -> [0, 0, 0]
2026-07-24 19:59:45,439 DEBUG   send: 0x0 0x66 0x0 0x0 0x0 0x4 0x1 0x1 0x1 0x0
2026-07-24 19:59:45,440 DEBUG   recv: 0x0 0x67 0x0 0x0 0x0 0x6 0x1 0x2 0x0 0x0 0x0 0x3 old_data:  addr=None
2026-07-24 19:59:45,440 DEBUG   Processing: 0x0 0x67 0x0 0x0 0x0 0x6 0x1 0x2 0x0 0x0 0x0 0x3
2026-07-24 19:59:45,441 DEBUG   decoded PDU function_code(2 sub -1) -> ReadDiscreteInputsRequest(dev_id=0, transaction_id=0, address=0, count=3, bits=[], registers=[], status=1) 
2026-07-24 19:59:45,441 DEBUG   Frame advanced, resetting header!!
2026-07-24 19:59:45,441 DEBUG   [PLC] READ  fx=2 addr=0 count=3 -> [1, 0, 0]
2026-07-24 19:59:45,441 DEBUG   send: 0x0 0x67 0x0 0x0 0x0 0x4 0x1 0x2 0x1 0x1
2026-07-24 19:59:45,442 DEBUG   recv: 0x0 0x68 0x0 0x0 0x0 0x6 0x1 0x3 0x0 0x0 0x0 0x3 old_data:  addr=None
2026-07-24 19:59:45,442 DEBUG   Processing: 0x0 0x68 0x0 0x0 0x0 0x6 0x1 0x3 0x0 0x0 0x0 0x3
2026-07-24 19:59:45,442 DEBUG   decoded PDU function_code(3 sub -1) -> ReadHoldingRegistersRequest(dev_id=0, transaction_id=0, address=0, count=3, bits=[], registers=[], status=1) 
2026-07-24 19:59:45,443 DEBUG   Frame advanced, resetting header!!
2026-07-24 19:59:45,443 DEBUG   validate: fc-[3] address-1: count-3
2026-07-24 19:59:45,443 DEBUG   [PLC] READ  fx=3 addr=0 count=3 -> [500, 50, 100]
2026-07-24 19:59:45,443 DEBUG   send: 0x0 0x68 0x0 0x0 0x0 0x9 0x1 0x3 0x6 0x1 0xf4 0x0 0x32 0x0 0x64
2026-07-24 19:59:45,444 DEBUG   recv: 0x0 0x69 0x0 0x0 0x0 0x6 0x1 0x4 0x0 0x0 0x0 0x4 old_data:  addr=None
2026-07-24 19:59:45,444 DEBUG   Processing: 0x0 0x69 0x0 0x0 0x0 0x6 0x1 0x4 0x0 0x0 0x0 0x4
2026-07-24 19:59:45,444 DEBUG   decoded PDU function_code(4 sub -1) -> ReadInputRegistersRequest(dev_id=0, transaction_id=0, address=0, count=4, bits=[], registers=[], status=1) 
2026-07-24 19:59:45,445 DEBUG   Frame advanced, resetting header!!
2026-07-24 19:59:45,445 DEBUG   validate: fc-[4] address-1: count-4
2026-07-24 19:59:45,445 DEBUG   [PLC] READ  fx=4 addr=0 count=4 -> [924, 0, 1, 31]
2026-07-24 19:59:45,445 DEBUG   send: 0x0 0x69 0x0 0x0 0x0 0xb 0x1 0x4 0x8 0x3 0x9c 0x0 0x0 0x0 0x1 0x0 0x1f
2026-07-24 19:59:46,461 DEBUG   recv: 0x0 0x6a 0x0 0x0 0x0 0x6 0x1 0x1 0x0 0x0 0x0 0x3 old_data:  addr=None
2026-07-24 19:59:46,462 DEBUG   Processing: 0x0 0x6a 0x0 0x0 0x0 0x6 0x1 0x1 0x0 0x0 0x0 0x3
2026-07-24 19:59:46,462 DEBUG   decoded PDU function_code(1 sub -1) -> ReadCoilsRequest(dev_id=0, transaction_id=0, address=0, count=3, bits=[], registers=[], status=1) 
2026-07-24 19:59:46,462 DEBUG   Frame advanced, resetting header!!
2026-07-24 19:59:46,462 DEBUG   [PLC] READ  fx=1 addr=0 count=3 -> [0, 0, 0]
2026-07-24 19:59:46,463 DEBUG   send: 0x0 0x6a 0x0 0x0 0x0 0x4 0x1 0x1 0x1 0x0
2026-07-24 19:59:46,463 DEBUG   recv: 0x0 0x6b 0x0 0x0 0x0 0x6 0x1 0x2 0x0 0x0 0x0 0x3 old_data:  addr=None
2026-07-24 19:59:46,464 DEBUG   Processing: 0x0 0x6b 0x0 0x0 0x0 0x6 0x1 0x2 0x0 0x0 0x0 0x3
2026-07-24 19:59:46,464 DEBUG   decoded PDU function_code(2 sub -1) -> ReadDiscreteInputsRequest(dev_id=0, transaction_id=0, address=0, count=3, bits=[], registers=[], status=1) 
2026-07-24 19:59:46,464 DEBUG   Frame advanced, resetting header!!
2026-07-24 19:59:46,464 DEBUG   [PLC] READ  fx=2 addr=0 count=3 -> [1, 0, 0]
2026-07-24 19:59:46,465 DEBUG   send: 0x0 0x6b 0x0 0x0 0x0 0x4 0x1 0x2 0x1 0x1
2026-07-24 19:59:46,465 DEBUG   recv: 0x0 0x6c 0x0 0x0 0x0 0x6 0x1 0x3 0x0 0x0 0x0 0x3 old_data:  addr=None
2026-07-24 19:59:46,466 DEBUG   Processing: 0x0 0x6c 0x0 0x0 0x0 0x6 0x1 0x3 0x0 0x0 0x0 0x3
2026-07-24 19:59:46,466 DEBUG   decoded PDU function_code(3 sub -1) -> ReadHoldingRegistersRequest(dev_id=0, transaction_id=0, address=0, count=3, bits=[], registers=[], status=1) 
2026-07-24 19:59:46,466 DEBUG   Frame advanced, resetting header!!
2026-07-24 19:59:46,466 DEBUG   validate: fc-[3] address-1: count-3
2026-07-24 19:59:46,466 DEBUG   [PLC] READ  fx=3 addr=0 count=3 -> [500, 50, 100]
2026-07-24 19:59:46,467 DEBUG   send: 0x0 0x6c 0x0 0x0 0x0 0x9 0x1 0x3 0x6 0x1 0xf4 0x0 0x32 0x0 0x64
2026-07-24 19:59:46,467 DEBUG   recv: 0x0 0x6d 0x0 0x0 0x0 0x6 0x1 0x4 0x0 0x0 0x0 0x4 old_data:  addr=None
2026-07-24 19:59:46,468 DEBUG   Processing: 0x0 0x6d 0x0 0x0 0x0 0x6 0x1 0x4 0x0 0x0 0x0 0x4
2026-07-24 19:59:46,468 DEBUG   decoded PDU function_code(4 sub -1) -> ReadInputRegistersRequest(dev_id=0, transaction_id=0, address=0, count=4, bits=[], registers=[], status=1) 
2026-07-24 19:59:46,468 DEBUG   Frame advanced, resetting header!!
2026-07-24 19:59:46,468 DEBUG   validate: fc-[4] address-1: count-4
2026-07-24 19:59:46,468 DEBUG   [PLC] READ  fx=4 addr=0 count=4 -> [924, 0, 1, 32]
2026-07-24 19:59:46,469 DEBUG   send: 0x0 0x6d 0x0 0x0 0x0 0xb 0x1 0x4 0x8 0x3 0x9c 0x0 0x0 0x0 0x1 0x0 0x20
2026-07-24 19:59:47,485 DEBUG   recv: 0x0 0x6e 0x0 0x0 0x0 0x6 0x1 0x1 0x0 0x0 0x0 0x3 old_data:  addr=None
2026-07-24 19:59:47,486 DEBUG   Processing: 0x0 0x6e 0x0 0x0 0x0 0x6 0x1 0x1 0x0 0x0 0x0 0x3
2026-07-24 19:59:47,486 DEBUG   decoded PDU function_code(1 sub -1) -> ReadCoilsRequest(dev_id=0, transaction_id=0, address=0, count=3, bits=[], registers=[], status=1) 
2026-07-24 19:59:47,486 DEBUG   Frame advanced, resetting header!!
2026-07-24 19:59:47,486 DEBUG   [PLC] READ  fx=1 addr=0 count=3 -> [0, 0, 0]
2026-07-24 19:59:47,487 DEBUG   send: 0x0 0x6e 0x0 0x0 0x0 0x4 0x1 0x1 0x1 0x0
2026-07-24 19:59:47,487 DEBUG   recv: 0x0 0x6f 0x0 0x0 0x0 0x6 0x1 0x2 0x0 0x0 0x0 0x3 old_data:  addr=None
2026-07-24 19:59:47,488 DEBUG   Processing: 0x0 0x6f 0x0 0x0 0x0 0x6 0x1 0x2 0x0 0x0 0x0 0x3
2026-07-24 19:59:47,488 DEBUG   decoded PDU function_code(2 sub -1) -> ReadDiscreteInputsRequest(dev_id=0, transaction_id=0, address=0, count=3, bits=[], registers=[], status=1) 
2026-07-24 19:59:47,488 DEBUG   Frame advanced, resetting header!!
2026-07-24 19:59:47,488 DEBUG   [PLC] READ  fx=2 addr=0 count=3 -> [1, 0, 0]
2026-07-24 19:59:47,488 DEBUG   send: 0x0 0x6f 0x0 0x0 0x0 0x4 0x1 0x2 0x1 0x1
2026-07-24 19:59:47,489 DEBUG   recv: 0x0 0x70 0x0 0x0 0x0 0x6 0x1 0x3 0x0 0x0 0x0 0x3 old_data:  addr=None
2026-07-24 19:59:47,489 DEBUG   Processing: 0x0 0x70 0x0 0x0 0x0 0x6 0x1 0x3 0x0 0x0 0x0 0x3
2026-07-24 19:59:47,490 DEBUG   decoded PDU function_code(3 sub -1) -> ReadHoldingRegistersRequest(dev_id=0, transaction_id=0, address=0, count=3, bits=[], registers=[], status=1) 
2026-07-24 19:59:47,490 DEBUG   Frame advanced, resetting header!!
2026-07-24 19:59:47,490 DEBUG   validate: fc-[3] address-1: count-3
2026-07-24 19:59:47,490 DEBUG   [PLC] READ  fx=3 addr=0 count=3 -> [500, 50, 100]
2026-07-24 19:59:47,491 DEBUG   send: 0x0 0x70 0x0 0x0 0x0 0x9 0x1 0x3 0x6 0x1 0xf4 0x0 0x32 0x0 0x64
2026-07-24 19:59:47,491 DEBUG   recv: 0x0 0x71 0x0 0x0 0x0 0x6 0x1 0x4 0x0 0x0 0x0 0x4 old_data:  addr=None
2026-07-24 19:59:47,491 DEBUG   Processing: 0x0 0x71 0x0 0x0 0x0 0x6 0x1 0x4 0x0 0x0 0x0 0x4
2026-07-24 19:59:47,492 DEBUG   decoded PDU function_code(4 sub -1) -> ReadInputRegistersRequest(dev_id=0, transaction_id=0, address=0, count=4, bits=[], registers=[], status=1) 
2026-07-24 19:59:47,492 DEBUG   Frame advanced, resetting header!!
2026-07-24 19:59:47,492 DEBUG   validate: fc-[4] address-1: count-4
2026-07-24 19:59:47,492 DEBUG   [PLC] READ  fx=4 addr=0 count=4 -> [924, 0, 1, 33]
2026-07-24 19:59:47,493 DEBUG   send: 0x0 0x71 0x0 0x0 0x0 0xb 0x1 0x4 0x8 0x3 0x9c 0x0 0x0 0x0 0x1 0x0 0x21
2026-07-24 19:59:48,509 DEBUG   recv: 0x0 0x72 0x0 0x0 0x0 0x6 0x1 0x1 0x0 0x0 0x0 0x3 old_data:  addr=None
2026-07-24 19:59:48,509 DEBUG   Processing: 0x0 0x72 0x0 0x0 0x0 0x6 0x1 0x1 0x0 0x0 0x0 0x3
2026-07-24 19:59:48,510 DEBUG   decoded PDU function_code(1 sub -1) -> ReadCoilsRequest(dev_id=0, transaction_id=0, address=0, count=3, bits=[], registers=[], status=1) 
2026-07-24 19:59:48,510 DEBUG   Frame advanced, resetting header!!
2026-07-24 19:59:48,510 DEBUG   [PLC] READ  fx=1 addr=0 count=3 -> [0, 0, 0]
2026-07-24 19:59:48,510 DEBUG   send: 0x0 0x72 0x0 0x0 0x0 0x4 0x1 0x1 0x1 0x0
2026-07-24 19:59:48,511 DEBUG   recv: 0x0 0x73 0x0 0x0 0x0 0x6 0x1 0x2 0x0 0x0 0x0 0x3 old_data:  addr=None
2026-07-24 19:59:48,511 DEBUG   Processing: 0x0 0x73 0x0 0x0 0x0 0x6 0x1 0x2 0x0 0x0 0x0 0x3
2026-07-24 19:59:48,511 DEBUG   decoded PDU function_code(2 sub -1) -> ReadDiscreteInputsRequest(dev_id=0, transaction_id=0, address=0, count=3, bits=[], registers=[], status=1) 
2026-07-24 19:59:48,512 DEBUG   Frame advanced, resetting header!!
2026-07-24 19:59:48,512 DEBUG   [PLC] READ  fx=2 addr=0 count=3 -> [1, 0, 0]
2026-07-24 19:59:48,512 DEBUG   send: 0x0 0x73 0x0 0x0 0x0 0x4 0x1 0x2 0x1 0x1
2026-07-24 19:59:48,513 DEBUG   recv: 0x0 0x74 0x0 0x0 0x0 0x6 0x1 0x3 0x0 0x0 0x0 0x3 old_data:  addr=None
2026-07-24 19:59:48,513 DEBUG   Processing: 0x0 0x74 0x0 0x0 0x0 0x6 0x1 0x3 0x0 0x0 0x0 0x3
2026-07-24 19:59:48,513 DEBUG   decoded PDU function_code(3 sub -1) -> ReadHoldingRegistersRequest(dev_id=0, transaction_id=0, address=0, count=3, bits=[], registers=[], status=1) 
2026-07-24 19:59:48,513 DEBUG   Frame advanced, resetting header!!
2026-07-24 19:59:48,514 DEBUG   validate: fc-[3] address-1: count-3
2026-07-24 19:59:48,514 DEBUG   [PLC] READ  fx=3 addr=0 count=3 -> [500, 50, 100]
2026-07-24 19:59:48,514 DEBUG   send: 0x0 0x74 0x0 0x0 0x0 0x9 0x1 0x3 0x6 0x1 0xf4 0x0 0x32 0x0 0x64
2026-07-24 19:59:48,515 DEBUG   recv: 0x0 0x75 0x0 0x0 0x0 0x6 0x1 0x4 0x0 0x0 0x0 0x4 old_data:  addr=None
2026-07-24 19:59:48,515 DEBUG   Processing: 0x0 0x75 0x0 0x0 0x0 0x6 0x1 0x4 0x0 0x0 0x0 0x4
2026-07-24 19:59:48,515 DEBUG   decoded PDU function_code(4 sub -1) -> ReadInputRegistersRequest(dev_id=0, transaction_id=0, address=0, count=4, bits=[], registers=[], status=1) 
2026-07-24 19:59:48,516 DEBUG   Frame advanced, resetting header!!
2026-07-24 19:59:48,516 DEBUG   validate: fc-[4] address-1: count-4
2026-07-24 19:59:48,516 DEBUG   [PLC] READ  fx=4 addr=0 count=4 -> [924, 0, 1, 34]
2026-07-24 19:59:48,516 DEBUG   send: 0x0 0x75 0x0 0x0 0x0 0xb 0x1 0x4 0x8 0x3 0x9c 0x0 0x0 0x0 0x1 0x0 0x22
2026-07-24 19:59:49,533 DEBUG   recv: 0x0 0x76 0x0 0x0 0x0 0x6 0x1 0x1 0x0 0x0 0x0 0x3 old_data:  addr=None
2026-07-24 19:59:49,533 DEBUG   Processing: 0x0 0x76 0x0 0x0 0x0 0x6 0x1 0x1 0x0 0x0 0x0 0x3
2026-07-24 19:59:49,533 DEBUG   decoded PDU function_code(1 sub -1) -> ReadCoilsRequest(dev_id=0, transaction_id=0, address=0, count=3, bits=[], registers=[], status=1) 
2026-07-24 19:59:49,533 DEBUG   Frame advanced, resetting header!!
2026-07-24 19:59:49,534 DEBUG   [PLC] READ  fx=1 addr=0 count=3 -> [0, 0, 0]
2026-07-24 19:59:49,534 DEBUG   send: 0x0 0x76 0x0 0x0 0x0 0x4 0x1 0x1 0x1 0x0
2026-07-24 19:59:49,535 DEBUG   recv: 0x0 0x77 0x0 0x0 0x0 0x6 0x1 0x2 0x0 0x0 0x0 0x3 old_data:  addr=None
2026-07-24 19:59:49,535 DEBUG   Processing: 0x0 0x77 0x0 0x0 0x0 0x6 0x1 0x2 0x0 0x0 0x0 0x3
2026-07-24 19:59:49,535 DEBUG   decoded PDU function_code(2 sub -1) -> ReadDiscreteInputsRequest(dev_id=0, transaction_id=0, address=0, count=3, bits=[], registers=[], status=1) 
2026-07-24 19:59:49,535 DEBUG   Frame advanced, resetting header!!
2026-07-24 19:59:49,536 DEBUG   [PLC] READ  fx=2 addr=0 count=3 -> [1, 0, 0]
2026-07-24 19:59:49,536 DEBUG   send: 0x0 0x77 0x0 0x0 0x0 0x4 0x1 0x2 0x1 0x1
2026-07-24 19:59:49,537 DEBUG   recv: 0x0 0x78 0x0 0x0 0x0 0x6 0x1 0x3 0x0 0x0 0x0 0x3 old_data:  addr=None
2026-07-24 19:59:49,537 DEBUG   Processing: 0x0 0x78 0x0 0x0 0x0 0x6 0x1 0x3 0x0 0x0 0x0 0x3
2026-07-24 19:59:49,537 DEBUG   decoded PDU function_code(3 sub -1) -> ReadHoldingRegistersRequest(dev_id=0, transaction_id=0, address=0, count=3, bits=[], registers=[], status=1) 
2026-07-24 19:59:49,537 DEBUG   Frame advanced, resetting header!!
2026-07-24 19:59:49,538 DEBUG   validate: fc-[3] address-1: count-3
2026-07-24 19:59:49,538 DEBUG   [PLC] READ  fx=3 addr=0 count=3 -> [500, 50, 100]
2026-07-24 19:59:49,538 DEBUG   send: 0x0 0x78 0x0 0x0 0x0 0x9 0x1 0x3 0x6 0x1 0xf4 0x0 0x32 0x0 0x64
2026-07-24 19:59:49,539 DEBUG   recv: 0x0 0x79 0x0 0x0 0x0 0x6 0x1 0x4 0x0 0x0 0x0 0x4 old_data:  addr=None
2026-07-24 19:59:49,539 DEBUG   Processing: 0x0 0x79 0x0 0x0 0x0 0x6 0x1 0x4 0x0 0x0 0x0 0x4
2026-07-24 19:59:49,539 DEBUG   decoded PDU function_code(4 sub -1) -> ReadInputRegistersRequest(dev_id=0, transaction_id=0, address=0, count=4, bits=[], registers=[], status=1) 
2026-07-24 19:59:49,539 DEBUG   Frame advanced, resetting header!!
2026-07-24 19:59:49,540 DEBUG   validate: fc-[4] address-1: count-4
2026-07-24 19:59:49,540 DEBUG   [PLC] READ  fx=4 addr=0 count=4 -> [924, 0, 1, 35]
2026-07-24 19:59:49,540 DEBUG   send: 0x0 0x79 0x0 0x0 0x0 0xb 0x1 0x4 0x8 0x3 0x9c 0x0 0x0 0x0 0x1 0x0 0x23
2026-07-24 19:59:50,558 DEBUG   recv: 0x0 0x7a 0x0 0x0 0x0 0x6 0x1 0x1 0x0 0x0 0x0 0x3 old_data:  addr=None
2026-07-24 19:59:50,559 DEBUG   Processing: 0x0 0x7a 0x0 0x0 0x0 0x6 0x1 0x1 0x0 0x0 0x0 0x3
2026-07-24 19:59:50,559 DEBUG   decoded PDU function_code(1 sub -1) -> ReadCoilsRequest(dev_id=0, transaction_id=0, address=0, count=3, bits=[], registers=[], status=1) 
2026-07-24 19:59:50,559 DEBUG   Frame advanced, resetting header!!
2026-07-24 19:59:50,559 DEBUG   [PLC] READ  fx=1 addr=0 count=3 -> [0, 0, 0]
2026-07-24 19:59:50,560 DEBUG   send: 0x0 0x7a 0x0 0x0 0x0 0x4 0x1 0x1 0x1 0x0
2026-07-24 19:59:50,560 DEBUG   recv: 0x0 0x7b 0x0 0x0 0x0 0x6 0x1 0x2 0x0 0x0 0x0 0x3 old_data:  addr=None
2026-07-24 19:59:50,561 DEBUG   Processing: 0x0 0x7b 0x0 0x0 0x0 0x6 0x1 0x2 0x0 0x0 0x0 0x3
2026-07-24 19:59:50,561 DEBUG   decoded PDU function_code(2 sub -1) -> ReadDiscreteInputsRequest(dev_id=0, transaction_id=0, address=0, count=3, bits=[], registers=[], status=1) 
2026-07-24 19:59:50,561 DEBUG   Frame advanced, resetting header!!
2026-07-24 19:59:50,561 DEBUG   [PLC] READ  fx=2 addr=0 count=3 -> [1, 0, 0]
2026-07-24 19:59:50,562 DEBUG   send: 0x0 0x7b 0x0 0x0 0x0 0x4 0x1 0x2 0x1 0x1
2026-07-24 19:59:50,562 DEBUG   recv: 0x0 0x7c 0x0 0x0 0x0 0x6 0x1 0x3 0x0 0x0 0x0 0x3 old_data:  addr=None
2026-07-24 19:59:50,563 DEBUG   Processing: 0x0 0x7c 0x0 0x0 0x0 0x6 0x1 0x3 0x0 0x0 0x0 0x3
2026-07-24 19:59:50,563 DEBUG   decoded PDU function_code(3 sub -1) -> ReadHoldingRegistersRequest(dev_id=0, transaction_id=0, address=0, count=3, bits=[], registers=[], status=1) 
2026-07-24 19:59:50,563 DEBUG   Frame advanced, resetting header!!
2026-07-24 19:59:50,563 DEBUG   validate: fc-[3] address-1: count-3
2026-07-24 19:59:50,563 DEBUG   [PLC] READ  fx=3 addr=0 count=3 -> [500, 50, 100]
2026-07-24 19:59:50,564 DEBUG   send: 0x0 0x7c 0x0 0x0 0x0 0x9 0x1 0x3 0x6 0x1 0xf4 0x0 0x32 0x0 0x64
2026-07-24 19:59:50,564 DEBUG   recv: 0x0 0x7d 0x0 0x0 0x0 0x6 0x1 0x4 0x0 0x0 0x0 0x4 old_data:  addr=None
2026-07-24 19:59:50,565 DEBUG   Processing: 0x0 0x7d 0x0 0x0 0x0 0x6 0x1 0x4 0x0 0x0 0x0 0x4
2026-07-24 19:59:50,565 DEBUG   decoded PDU function_code(4 sub -1) -> ReadInputRegistersRequest(dev_id=0, transaction_id=0, address=0, count=4, bits=[], registers=[], status=1) 
2026-07-24 19:59:50,565 DEBUG   Frame advanced, resetting header!!
2026-07-24 19:59:50,565 DEBUG   validate: fc-[4] address-1: count-4
2026-07-24 19:59:50,566 DEBUG   [PLC] READ  fx=4 addr=0 count=4 -> [924, 0, 1, 36]
2026-07-24 19:59:50,566 DEBUG   send: 0x0 0x7d 0x0 0x0 0x0 0xb 0x1 0x4 0x8 0x3 0x9c 0x0 0x0 0x0 0x1 0x0 0x24
2026-07-24 19:59:51,583 DEBUG   recv: 0x0 0x7e 0x0 0x0 0x0 0x6 0x1 0x1 0x0 0x0 0x0 0x3 old_data:  addr=None
2026-07-24 19:59:51,583 DEBUG   Processing: 0x0 0x7e 0x0 0x0 0x0 0x6 0x1 0x1 0x0 0x0 0x0 0x3
2026-07-24 19:59:51,583 DEBUG   decoded PDU function_code(1 sub -1) -> ReadCoilsRequest(dev_id=0, transaction_id=0, address=0, count=3, bits=[], registers=[], status=1) 
2026-07-24 19:59:51,583 DEBUG   Frame advanced, resetting header!!
2026-07-24 19:59:51,584 DEBUG   [PLC] READ  fx=1 addr=0 count=3 -> [0, 0, 0]
2026-07-24 19:59:51,584 DEBUG   send: 0x0 0x7e 0x0 0x0 0x0 0x4 0x1 0x1 0x1 0x0
2026-07-24 19:59:51,584 DEBUG   recv: 0x0 0x7f 0x0 0x0 0x0 0x6 0x1 0x2 0x0 0x0 0x0 0x3 old_data:  addr=None
2026-07-24 19:59:51,585 DEBUG   Processing: 0x0 0x7f 0x0 0x0 0x0 0x6 0x1 0x2 0x0 0x0 0x0 0x3
2026-07-24 19:59:51,585 DEBUG   decoded PDU function_code(2 sub -1) -> ReadDiscreteInputsRequest(dev_id=0, transaction_id=0, address=0, count=3, bits=[], registers=[], status=1) 
2026-07-24 19:59:51,585 DEBUG   Frame advanced, resetting header!!
2026-07-24 19:59:51,586 DEBUG   [PLC] READ  fx=2 addr=0 count=3 -> [1, 0, 0]
2026-07-24 19:59:51,586 DEBUG   send: 0x0 0x7f 0x0 0x0 0x0 0x4 0x1 0x2 0x1 0x1
2026-07-24 19:59:51,586 DEBUG   recv: 0x0 0x80 0x0 0x0 0x0 0x6 0x1 0x3 0x0 0x0 0x0 0x3 old_data:  addr=None
2026-07-24 19:59:51,587 DEBUG   Processing: 0x0 0x80 0x0 0x0 0x0 0x6 0x1 0x3 0x0 0x0 0x0 0x3
2026-07-24 19:59:51,587 DEBUG   decoded PDU function_code(3 sub -1) -> ReadHoldingRegistersRequest(dev_id=0, transaction_id=0, address=0, count=3, bits=[], registers=[], status=1) 
2026-07-24 19:59:51,587 DEBUG   Frame advanced, resetting header!!
2026-07-24 19:59:51,587 DEBUG   validate: fc-[3] address-1: count-3
2026-07-24 19:59:51,588 DEBUG   [PLC] READ  fx=3 addr=0 count=3 -> [500, 50, 100]
2026-07-24 19:59:51,588 DEBUG   send: 0x0 0x80 0x0 0x0 0x0 0x9 0x1 0x3 0x6 0x1 0xf4 0x0 0x32 0x0 0x64
2026-07-24 19:59:51,588 DEBUG   recv: 0x0 0x81 0x0 0x0 0x0 0x6 0x1 0x4 0x0 0x0 0x0 0x4 old_data:  addr=None
2026-07-24 19:59:51,589 DEBUG   Processing: 0x0 0x81 0x0 0x0 0x0 0x6 0x1 0x4 0x0 0x0 0x0 0x4
2026-07-24 19:59:51,589 DEBUG   decoded PDU function_code(4 sub -1) -> ReadInputRegistersRequest(dev_id=0, transaction_id=0, address=0, count=4, bits=[], registers=[], status=1) 
2026-07-24 19:59:51,589 DEBUG   Frame advanced, resetting header!!
2026-07-24 19:59:51,589 DEBUG   validate: fc-[4] address-1: count-4
2026-07-24 19:59:51,590 DEBUG   [PLC] READ  fx=4 addr=0 count=4 -> [924, 0, 1, 38]
2026-07-24 19:59:51,590 DEBUG   send: 0x0 0x81 0x0 0x0 0x0 0xb 0x1 0x4 0x8 0x3 0x9c 0x0 0x0 0x0 0x1 0x0 0x26
2026-07-24 19:59:52,607 DEBUG   recv: 0x0 0x82 0x0 0x0 0x0 0x6 0x1 0x1 0x0 0x0 0x0 0x3 old_data:  addr=None
2026-07-24 19:59:52,608 DEBUG   Processing: 0x0 0x82 0x0 0x0 0x0 0x6 0x1 0x1 0x0 0x0 0x0 0x3
2026-07-24 19:59:52,608 DEBUG   decoded PDU function_code(1 sub -1) -> ReadCoilsRequest(dev_id=0, transaction_id=0, address=0, count=3, bits=[], registers=[], status=1) 
2026-07-24 19:59:52,608 DEBUG   Frame advanced, resetting header!!
2026-07-24 19:59:52,609 DEBUG   [PLC] READ  fx=1 addr=0 count=3 -> [0, 0, 0]
2026-07-24 19:59:52,609 DEBUG   send: 0x0 0x82 0x0 0x0 0x0 0x4 0x1 0x1 0x1 0x0
2026-07-24 19:59:52,609 DEBUG   recv: 0x0 0x83 0x0 0x0 0x0 0x6 0x1 0x2 0x0 0x0 0x0 0x3 old_data:  addr=None
2026-07-24 19:59:52,610 DEBUG   Processing: 0x0 0x83 0x0 0x0 0x0 0x6 0x1 0x2 0x0 0x0 0x0 0x3
2026-07-24 19:59:52,610 DEBUG   decoded PDU function_code(2 sub -1) -> ReadDiscreteInputsRequest(dev_id=0, transaction_id=0, address=0, count=3, bits=[], registers=[], status=1) 
2026-07-24 19:59:52,610 DEBUG   Frame advanced, resetting header!!
2026-07-24 19:59:52,610 DEBUG   [PLC] READ  fx=2 addr=0 count=3 -> [1, 0, 0]
2026-07-24 19:59:52,611 DEBUG   send: 0x0 0x83 0x0 0x0 0x0 0x4 0x1 0x2 0x1 0x1
2026-07-24 19:59:52,611 DEBUG   recv: 0x0 0x84 0x0 0x0 0x0 0x6 0x1 0x3 0x0 0x0 0x0 0x3 old_data:  addr=None
2026-07-24 19:59:52,612 DEBUG   Processing: 0x0 0x84 0x0 0x0 0x0 0x6 0x1 0x3 0x0 0x0 0x0 0x3
2026-07-24 19:59:52,612 DEBUG   decoded PDU function_code(3 sub -1) -> ReadHoldingRegistersRequest(dev_id=0, transaction_id=0, address=0, count=3, bits=[], registers=[], status=1) 
2026-07-24 19:59:52,612 DEBUG   Frame advanced, resetting header!!
2026-07-24 19:59:52,612 DEBUG   validate: fc-[3] address-1: count-3
2026-07-24 19:59:52,613 DEBUG   [PLC] READ  fx=3 addr=0 count=3 -> [500, 50, 100]
2026-07-24 19:59:52,613 DEBUG   send: 0x0 0x84 0x0 0x0 0x0 0x9 0x1 0x3 0x6 0x1 0xf4 0x0 0x32 0x0 0x64
2026-07-24 19:59:52,613 DEBUG   recv: 0x0 0x85 0x0 0x0 0x0 0x6 0x1 0x4 0x0 0x0 0x0 0x4 old_data:  addr=None
2026-07-24 19:59:52,614 DEBUG   Processing: 0x0 0x85 0x0 0x0 0x0 0x6 0x1 0x4 0x0 0x0 0x0 0x4
2026-07-24 19:59:52,614 DEBUG   decoded PDU function_code(4 sub -1) -> ReadInputRegistersRequest(dev_id=0, transaction_id=0, address=0, count=4, bits=[], registers=[], status=1) 
2026-07-24 19:59:52,614 DEBUG   Frame advanced, resetting header!!
2026-07-24 19:59:52,614 DEBUG   validate: fc-[4] address-1: count-4
2026-07-24 19:59:52,615 DEBUG   [PLC] READ  fx=4 addr=0 count=4 -> [924, 0, 1, 39]
2026-07-24 19:59:52,615 DEBUG   send: 0x0 0x85 0x0 0x0 0x0 0xb 0x1 0x4 0x8 0x3 0x9c 0x0 0x0 0x0 0x1 0x0 0x27
2026-07-24 19:59:53,631 DEBUG   recv: 0x0 0x86 0x0 0x0 0x0 0x6 0x1 0x1 0x0 0x0 0x0 0x3 old_data:  addr=None
2026-07-24 19:59:53,631 DEBUG   Processing: 0x0 0x86 0x0 0x0 0x0 0x6 0x1 0x1 0x0 0x0 0x0 0x3
2026-07-24 19:59:53,631 DEBUG   decoded PDU function_code(1 sub -1) -> ReadCoilsRequest(dev_id=0, transaction_id=0, address=0, count=3, bits=[], registers=[], status=1) 
2026-07-24 19:59:53,631 DEBUG   Frame advanced, resetting header!!
2026-07-24 19:59:53,632 DEBUG   [PLC] READ  fx=1 addr=0 count=3 -> [0, 0, 0]
2026-07-24 19:59:53,632 DEBUG   send: 0x0 0x86 0x0 0x0 0x0 0x4 0x1 0x1 0x1 0x0
2026-07-24 19:59:53,633 DEBUG   recv: 0x0 0x87 0x0 0x0 0x0 0x6 0x1 0x2 0x0 0x0 0x0 0x3 old_data:  addr=None
2026-07-24 19:59:53,633 DEBUG   Processing: 0x0 0x87 0x0 0x0 0x0 0x6 0x1 0x2 0x0 0x0 0x0 0x3
2026-07-24 19:59:53,633 DEBUG   decoded PDU function_code(2 sub -1) -> ReadDiscreteInputsRequest(dev_id=0, transaction_id=0, address=0, count=3, bits=[], registers=[], status=1) 
2026-07-24 19:59:53,633 DEBUG   Frame advanced, resetting header!!
2026-07-24 19:59:53,634 DEBUG   [PLC] READ  fx=2 addr=0 count=3 -> [1, 0, 0]
2026-07-24 19:59:53,634 DEBUG   send: 0x0 0x87 0x0 0x0 0x0 0x4 0x1 0x2 0x1 0x1
2026-07-24 19:59:53,635 DEBUG   recv: 0x0 0x88 0x0 0x0 0x0 0x6 0x1 0x3 0x0 0x0 0x0 0x3 old_data:  addr=None
2026-07-24 19:59:53,635 DEBUG   Processing: 0x0 0x88 0x0 0x0 0x0 0x6 0x1 0x3 0x0 0x0 0x0 0x3
2026-07-24 19:59:53,635 DEBUG   decoded PDU function_code(3 sub -1) -> ReadHoldingRegistersRequest(dev_id=0, transaction_id=0, address=0, count=3, bits=[], registers=[], status=1) 
2026-07-24 19:59:53,635 DEBUG   Frame advanced, resetting header!!
2026-07-24 19:59:53,636 DEBUG   validate: fc-[3] address-1: count-3
2026-07-24 19:59:53,636 DEBUG   [PLC] READ  fx=3 addr=0 count=3 -> [500, 50, 100]
2026-07-24 19:59:53,636 DEBUG   send: 0x0 0x88 0x0 0x0 0x0 0x9 0x1 0x3 0x6 0x1 0xf4 0x0 0x32 0x0 0x64
2026-07-24 19:59:53,637 DEBUG   recv: 0x0 0x89 0x0 0x0 0x0 0x6 0x1 0x4 0x0 0x0 0x0 0x4 old_data:  addr=None
2026-07-24 19:59:53,637 DEBUG   Processing: 0x0 0x89 0x0 0x0 0x0 0x6 0x1 0x4 0x0 0x0 0x0 0x4
2026-07-24 19:59:53,637 DEBUG   decoded PDU function_code(4 sub -1) -> ReadInputRegistersRequest(dev_id=0, transaction_id=0, address=0, count=4, bits=[], registers=[], status=1) 
2026-07-24 19:59:53,637 DEBUG   Frame advanced, resetting header!!
2026-07-24 19:59:53,638 DEBUG   validate: fc-[4] address-1: count-4
2026-07-24 19:59:53,638 DEBUG   [PLC] READ  fx=4 addr=0 count=4 -> [924, 0, 1, 40]
2026-07-24 19:59:53,638 DEBUG   send: 0x0 0x89 0x0 0x0 0x0 0xb 0x1 0x4 0x8 0x3 0x9c 0x0 0x0 0x0 0x1 0x0 0x28
2026-07-24 19:59:54,655 DEBUG   recv: 0x0 0x8a 0x0 0x0 0x0 0x6 0x1 0x1 0x0 0x0 0x0 0x3 old_data:  addr=None
2026-07-24 19:59:54,655 DEBUG   Processing: 0x0 0x8a 0x0 0x0 0x0 0x6 0x1 0x1 0x0 0x0 0x0 0x3
2026-07-24 19:59:54,656 DEBUG   decoded PDU function_code(1 sub -1) -> ReadCoilsRequest(dev_id=0, transaction_id=0, address=0, count=3, bits=[], registers=[], status=1) 
2026-07-24 19:59:54,656 DEBUG   Frame advanced, resetting header!!
2026-07-24 19:59:54,656 DEBUG   [PLC] READ  fx=1 addr=0 count=3 -> [0, 0, 0]
2026-07-24 19:59:54,656 DEBUG   send: 0x0 0x8a 0x0 0x0 0x0 0x4 0x1 0x1 0x1 0x0
2026-07-24 19:59:54,657 DEBUG   recv: 0x0 0x8b 0x0 0x0 0x0 0x6 0x1 0x2 0x0 0x0 0x0 0x3 old_data:  addr=None
2026-07-24 19:59:54,657 DEBUG   Processing: 0x0 0x8b 0x0 0x0 0x0 0x6 0x1 0x2 0x0 0x0 0x0 0x3
2026-07-24 19:59:54,658 DEBUG   decoded PDU function_code(2 sub -1) -> ReadDiscreteInputsRequest(dev_id=0, transaction_id=0, address=0, count=3, bits=[], registers=[], status=1) 
2026-07-24 19:59:54,658 DEBUG   Frame advanced, resetting header!!
2026-07-24 19:59:54,658 DEBUG   [PLC] READ  fx=2 addr=0 count=3 -> [1, 0, 0]
2026-07-24 19:59:54,658 DEBUG   send: 0x0 0x8b 0x0 0x0 0x0 0x4 0x1 0x2 0x1 0x1
2026-07-24 19:59:54,659 DEBUG   recv: 0x0 0x8c 0x0 0x0 0x0 0x6 0x1 0x3 0x0 0x0 0x0 0x3 old_data:  addr=None
2026-07-24 19:59:54,659 DEBUG   Processing: 0x0 0x8c 0x0 0x0 0x0 0x6 0x1 0x3 0x0 0x0 0x0 0x3
2026-07-24 19:59:54,659 DEBUG   decoded PDU function_code(3 sub -1) -> ReadHoldingRegistersRequest(dev_id=0, transaction_id=0, address=0, count=3, bits=[], registers=[], status=1) 
2026-07-24 19:59:54,660 DEBUG   Frame advanced, resetting header!!
2026-07-24 19:59:54,660 DEBUG   validate: fc-[3] address-1: count-3
2026-07-24 19:59:54,660 DEBUG   [PLC] READ  fx=3 addr=0 count=3 -> [500, 50, 100]
2026-07-24 19:59:54,660 DEBUG   send: 0x0 0x8c 0x0 0x0 0x0 0x9 0x1 0x3 0x6 0x1 0xf4 0x0 0x32 0x0 0x64
2026-07-24 19:59:54,661 DEBUG   recv: 0x0 0x8d 0x0 0x0 0x0 0x6 0x1 0x4 0x0 0x0 0x0 0x4 old_data:  addr=None
2026-07-24 19:59:54,661 DEBUG   Processing: 0x0 0x8d 0x0 0x0 0x0 0x6 0x1 0x4 0x0 0x0 0x0 0x4
2026-07-24 19:59:54,661 DEBUG   decoded PDU function_code(4 sub -1) -> ReadInputRegistersRequest(dev_id=0, transaction_id=0, address=0, count=4, bits=[], registers=[], status=1) 
2026-07-24 19:59:54,662 DEBUG   Frame advanced, resetting header!!
2026-07-24 19:59:54,662 DEBUG   validate: fc-[4] address-1: count-4
2026-07-24 19:59:54,662 DEBUG   [PLC] READ  fx=4 addr=0 count=4 -> [924, 0, 1, 41]
2026-07-24 19:59:54,662 DEBUG   send: 0x0 0x8d 0x0 0x0 0x0 0xb 0x1 0x4 0x8 0x3 0x9c 0x0 0x0 0x0 0x1 0x0 0x29
2026-07-24 19:59:55,681 DEBUG   recv: 0x0 0x8e 0x0 0x0 0x0 0x6 0x1 0x1 0x0 0x0 0x0 0x3 old_data:  addr=None
2026-07-24 19:59:55,681 DEBUG   Processing: 0x0 0x8e 0x0 0x0 0x0 0x6 0x1 0x1 0x0 0x0 0x0 0x3
2026-07-24 19:59:55,681 DEBUG   decoded PDU function_code(1 sub -1) -> ReadCoilsRequest(dev_id=0, transaction_id=0, address=0, count=3, bits=[], registers=[], status=1) 
2026-07-24 19:59:55,681 DEBUG   Frame advanced, resetting header!!
2026-07-24 19:59:55,682 DEBUG   [PLC] READ  fx=1 addr=0 count=3 -> [0, 0, 0]
2026-07-24 19:59:55,682 DEBUG   send: 0x0 0x8e 0x0 0x0 0x0 0x4 0x1 0x1 0x1 0x0
2026-07-24 19:59:55,683 DEBUG   recv: 0x0 0x8f 0x0 0x0 0x0 0x6 0x1 0x2 0x0 0x0 0x0 0x3 old_data:  addr=None
2026-07-24 19:59:55,683 DEBUG   Processing: 0x0 0x8f 0x0 0x0 0x0 0x6 0x1 0x2 0x0 0x0 0x0 0x3
2026-07-24 19:59:55,683 DEBUG   decoded PDU function_code(2 sub -1) -> ReadDiscreteInputsRequest(dev_id=0, transaction_id=0, address=0, count=3, bits=[], registers=[], status=1) 
2026-07-24 19:59:55,683 DEBUG   Frame advanced, resetting header!!
2026-07-24 19:59:55,684 DEBUG   [PLC] READ  fx=2 addr=0 count=3 -> [1, 0, 0]
2026-07-24 19:59:55,684 DEBUG   send: 0x0 0x8f 0x0 0x0 0x0 0x4 0x1 0x2 0x1 0x1
2026-07-24 19:59:55,684 DEBUG   recv: 0x0 0x90 0x0 0x0 0x0 0x6 0x1 0x3 0x0 0x0 0x0 0x3 old_data:  addr=None
2026-07-24 19:59:55,685 DEBUG   Processing: 0x0 0x90 0x0 0x0 0x0 0x6 0x1 0x3 0x0 0x0 0x0 0x3
2026-07-24 19:59:55,685 DEBUG   decoded PDU function_code(3 sub -1) -> ReadHoldingRegistersRequest(dev_id=0, transaction_id=0, address=0, count=3, bits=[], registers=[], status=1) 
2026-07-24 19:59:55,685 DEBUG   Frame advanced, resetting header!!
2026-07-24 19:59:55,685 DEBUG   validate: fc-[3] address-1: count-3
2026-07-24 19:59:55,686 DEBUG   [PLC] READ  fx=3 addr=0 count=3 -> [500, 50, 100]
2026-07-24 19:59:55,686 DEBUG   send: 0x0 0x90 0x0 0x0 0x0 0x9 0x1 0x3 0x6 0x1 0xf4 0x0 0x32 0x0 0x64
2026-07-24 19:59:55,687 DEBUG   recv: 0x0 0x91 0x0 0x0 0x0 0x6 0x1 0x4 0x0 0x0 0x0 0x4 old_data:  addr=None
2026-07-24 19:59:55,687 DEBUG   Processing: 0x0 0x91 0x0 0x0 0x0 0x6 0x1 0x4 0x0 0x0 0x0 0x4
2026-07-24 19:59:55,687 DEBUG   decoded PDU function_code(4 sub -1) -> ReadInputRegistersRequest(dev_id=0, transaction_id=0, address=0, count=4, bits=[], registers=[], status=1) 
2026-07-24 19:59:55,687 DEBUG   Frame advanced, resetting header!!
2026-07-24 19:59:55,687 DEBUG   validate: fc-[4] address-1: count-4
2026-07-24 19:59:55,688 DEBUG   [PLC] READ  fx=4 addr=0 count=4 -> [924, 0, 1, 42]
2026-07-24 19:59:55,688 DEBUG   send: 0x0 0x91 0x0 0x0 0x0 0xb 0x1 0x4 0x8 0x3 0x9c 0x0 0x0 0x0 0x1 0x0 0x2a
2026-07-24 19:59:56,705 DEBUG   recv: 0x0 0x92 0x0 0x0 0x0 0x6 0x1 0x1 0x0 0x0 0x0 0x3 old_data:  addr=None
2026-07-24 19:59:56,705 DEBUG   Processing: 0x0 0x92 0x0 0x0 0x0 0x6 0x1 0x1 0x0 0x0 0x0 0x3
2026-07-24 19:59:56,705 DEBUG   decoded PDU function_code(1 sub -1) -> ReadCoilsRequest(dev_id=0, transaction_id=0, address=0, count=3, bits=[], registers=[], status=1) 
2026-07-24 19:59:56,705 DEBUG   Frame advanced, resetting header!!
2026-07-24 19:59:56,706 DEBUG   [PLC] READ  fx=1 addr=0 count=3 -> [0, 0, 0]
2026-07-24 19:59:56,706 DEBUG   send: 0x0 0x92 0x0 0x0 0x0 0x4 0x1 0x1 0x1 0x0
2026-07-24 19:59:56,707 DEBUG   recv: 0x0 0x93 0x0 0x0 0x0 0x6 0x1 0x2 0x0 0x0 0x0 0x3 old_data:  addr=None
2026-07-24 19:59:56,707 DEBUG   Processing: 0x0 0x93 0x0 0x0 0x0 0x6 0x1 0x2 0x0 0x0 0x0 0x3
2026-07-24 19:59:56,707 DEBUG   decoded PDU function_code(2 sub -1) -> ReadDiscreteInputsRequest(dev_id=0, transaction_id=0, address=0, count=3, bits=[], registers=[], status=1) 
2026-07-24 19:59:56,707 DEBUG   Frame advanced, resetting header!!
2026-07-24 19:59:56,708 DEBUG   [PLC] READ  fx=2 addr=0 count=3 -> [1, 0, 0]
2026-07-24 19:59:56,708 DEBUG   send: 0x0 0x93 0x0 0x0 0x0 0x4 0x1 0x2 0x1 0x1
2026-07-24 19:59:56,708 DEBUG   recv: 0x0 0x94 0x0 0x0 0x0 0x6 0x1 0x3 0x0 0x0 0x0 0x3 old_data:  addr=None
2026-07-24 19:59:56,709 DEBUG   Processing: 0x0 0x94 0x0 0x0 0x0 0x6 0x1 0x3 0x0 0x0 0x0 0x3
2026-07-24 19:59:56,709 DEBUG   decoded PDU function_code(3 sub -1) -> ReadHoldingRegistersRequest(dev_id=0, transaction_id=0, address=0, count=3, bits=[], registers=[], status=1) 
2026-07-24 19:59:56,709 DEBUG   Frame advanced, resetting header!!
2026-07-24 19:59:56,709 DEBUG   validate: fc-[3] address-1: count-3
2026-07-24 19:59:56,710 DEBUG   [PLC] READ  fx=3 addr=0 count=3 -> [500, 50, 100]
2026-07-24 19:59:56,710 DEBUG   send: 0x0 0x94 0x0 0x0 0x0 0x9 0x1 0x3 0x6 0x1 0xf4 0x0 0x32 0x0 0x64
2026-07-24 19:59:56,710 DEBUG   recv: 0x0 0x95 0x0 0x0 0x0 0x6 0x1 0x4 0x0 0x0 0x0 0x4 old_data:  addr=None
2026-07-24 19:59:56,711 DEBUG   Processing: 0x0 0x95 0x0 0x0 0x0 0x6 0x1 0x4 0x0 0x0 0x0 0x4
2026-07-24 19:59:56,711 DEBUG   decoded PDU function_code(4 sub -1) -> ReadInputRegistersRequest(dev_id=0, transaction_id=0, address=0, count=4, bits=[], registers=[], status=1) 
2026-07-24 19:59:56,711 DEBUG   Frame advanced, resetting header!!
2026-07-24 19:59:56,711 DEBUG   validate: fc-[4] address-1: count-4
2026-07-24 19:59:56,712 DEBUG   [PLC] READ  fx=4 addr=0 count=4 -> [924, 0, 1, 43]
2026-07-24 19:59:56,712 DEBUG   send: 0x0 0x95 0x0 0x0 0x0 0xb 0x1 0x4 0x8 0x3 0x9c 0x0 0x0 0x0 0x1 0x0 0x2b
2026-07-24 19:59:57,729 DEBUG   recv: 0x0 0x96 0x0 0x0 0x0 0x6 0x1 0x1 0x0 0x0 0x0 0x3 old_data:  addr=None
2026-07-24 19:59:57,729 DEBUG   Processing: 0x0 0x96 0x0 0x0 0x0 0x6 0x1 0x1 0x0 0x0 0x0 0x3
2026-07-24 19:59:57,730 DEBUG   decoded PDU function_code(1 sub -1) -> ReadCoilsRequest(dev_id=0, transaction_id=0, address=0, count=3, bits=[], registers=[], status=1) 
2026-07-24 19:59:57,730 DEBUG   Frame advanced, resetting header!!
2026-07-24 19:59:57,730 DEBUG   [PLC] READ  fx=1 addr=0 count=3 -> [0, 0, 0]
2026-07-24 19:59:57,730 DEBUG   send: 0x0 0x96 0x0 0x0 0x0 0x4 0x1 0x1 0x1 0x0
2026-07-24 19:59:57,731 DEBUG   recv: 0x0 0x97 0x0 0x0 0x0 0x6 0x1 0x2 0x0 0x0 0x0 0x3 old_data:  addr=None
2026-07-24 19:59:57,731 DEBUG   Processing: 0x0 0x97 0x0 0x0 0x0 0x6 0x1 0x2 0x0 0x0 0x0 0x3
2026-07-24 19:59:57,732 DEBUG   decoded PDU function_code(2 sub -1) -> ReadDiscreteInputsRequest(dev_id=0, transaction_id=0, address=0, count=3, bits=[], registers=[], status=1) 
2026-07-24 19:59:57,732 DEBUG   Frame advanced, resetting header!!
2026-07-24 19:59:57,732 DEBUG   [PLC] READ  fx=2 addr=0 count=3 -> [1, 0, 0]
2026-07-24 19:59:57,732 DEBUG   send: 0x0 0x97 0x0 0x0 0x0 0x4 0x1 0x2 0x1 0x1
2026-07-24 19:59:57,733 DEBUG   recv: 0x0 0x98 0x0 0x0 0x0 0x6 0x1 0x3 0x0 0x0 0x0 0x3 old_data:  addr=None
2026-07-24 19:59:57,733 DEBUG   Processing: 0x0 0x98 0x0 0x0 0x0 0x6 0x1 0x3 0x0 0x0 0x0 0x3
2026-07-24 19:59:57,733 DEBUG   decoded PDU function_code(3 sub -1) -> ReadHoldingRegistersRequest(dev_id=0, transaction_id=0, address=0, count=3, bits=[], registers=[], status=1) 
2026-07-24 19:59:57,734 DEBUG   Frame advanced, resetting header!!
2026-07-24 19:59:57,734 DEBUG   validate: fc-[3] address-1: count-3
2026-07-24 19:59:57,734 DEBUG   [PLC] READ  fx=3 addr=0 count=3 -> [500, 50, 100]
2026-07-24 19:59:57,734 DEBUG   send: 0x0 0x98 0x0 0x0 0x0 0x9 0x1 0x3 0x6 0x1 0xf4 0x0 0x32 0x0 0x64
2026-07-24 19:59:57,735 DEBUG   recv: 0x0 0x99 0x0 0x0 0x0 0x6 0x1 0x4 0x0 0x0 0x0 0x4 old_data:  addr=None
2026-07-24 19:59:57,735 DEBUG   Processing: 0x0 0x99 0x0 0x0 0x0 0x6 0x1 0x4 0x0 0x0 0x0 0x4
